Freq.	V(n018)*10
1.00000000000000e+02	(-4.41137553376753e+01dB,8.92399296756965e+01°)
1.00695555005672e+02	(-4.40535545882581e+01dB,8.92346431073076e+01°)
1.01395947979003e+02	(-4.39933539121234e+01dB,8.92293197708444e+01°)
1.02101212570719e+02	(-4.39331533102939e+01dB,8.92239594106261e+01°)
1.02811382665607e+02	(-4.38729527838070e+01dB,8.92185617691947e+01°)
1.03526492384138e+02	(-4.38127523337144e+01dB,8.92131265873028e+01°)
1.04246576084112e+02	(-4.37525519610825e+01dB,8.92076536039011e+01°)
1.04971668362307e+02	(-4.36923516669926e+01dB,8.92021425561258e+01°)
1.05701804056138e+02	(-4.36321514525410e+01dB,8.91965931792865e+01°)
1.06437018245336e+02	(-4.35719513188393e+01dB,8.91910052068527e+01°)
1.07177346253629e+02	(-4.35117512670150e+01dB,8.91853783704419e+01°)
1.07922823650443e+02	(-4.34515512982107e+01dB,8.91797123998060e+01°)
1.08673486252606e+02	(-4.33913514135855e+01dB,8.91740070228190e+01°)
1.09429370126074e+02	(-4.33311516143143e+01dB,8.91682619654634e+01°)
1.10190511587661e+02	(-4.32709519015887e+01dB,8.91624769518177e+01°)
1.10956947206785e+02	(-4.32107522766167e+01dB,8.91566517040423e+01°)
1.11728713807222e+02	(-4.31505527406234e+01dB,8.91507859423673e+01°)
1.12505848468881e+02	(-4.30903532948507e+01dB,8.91448793850782e+01°)
1.13288388529580e+02	(-4.30301539405580e+01dB,8.91389317485027e+01°)
1.14076371586843e+02	(-4.29699546790224e+01dB,8.91329427469974e+01°)
1.14869835499704e+02	(-4.29097555115386e+01dB,8.91269120929337e+01°)
1.15668818390529e+02	(-4.28495564394195e+01dB,8.91208394966844e+01°)
1.16473358646846e+02	(-4.27893574639962e+01dB,8.91147246666095e+01°)
1.17283494923188e+02	(-4.27291585866187e+01dB,8.91085673090424e+01°)
1.18099266142953e+02	(-4.26689598086554e+01dB,8.91023671282759e+01°)
1.18920711500272e+02	(-4.26087611314941e+01dB,8.90961238265479e+01°)
1.19747870461893e+02	(-4.25485625565420e+01dB,8.90898371040275e+01°)
1.20580782769076e+02	(-4.24883640852256e+01dB,8.90835066588001e+01°)
1.21419488439505e+02	(-4.24281657189918e+01dB,8.90771321868533e+01°)
1.22264027769207e+02	(-4.23679674593073e+01dB,8.90707133820625e+01°)
1.23114441334492e+02	(-4.23077693076594e+01dB,8.90642499361757e+01°)
1.23970769993899e+02	(-4.22475712655563e+01dB,8.90577415387993e+01°)
1.24833054890161e+02	(-4.21873733345270e+01dB,8.90511878773832e+01°)
1.25701337452183e+02	(-4.21271755161221e+01dB,8.90445886372054e+01°)
1.26575659397028e+02	(-4.20669778119136e+01dB,8.90379435013574e+01°)
1.27456062731927e+02	(-4.20067802234956e+01dB,8.90312521507288e+01°)
1.28342589756291e+02	(-4.19465827524844e+01dB,8.90245142639923e+01°)
1.29235283063750e+02	(-4.18863854005188e+01dB,8.90177295175880e+01°)
1.30134185544194e+02	(-4.18261881692608e+01dB,8.90108975857081e+01°)
1.31039340385837e+02	(-4.17659910603951e+01dB,8.90040181402812e+01°)
1.31950791077290e+02	(-4.17057940756302e+01dB,8.89970908509569e+01°)
1.32868581409652e+02	(-4.16455972166984e+01dB,8.89901153850898e+01°)
1.33792755478612e+02	(-4.15854004853563e+01dB,8.89830914077234e+01°)
1.34723357686569e+02	(-4.15252038833848e+01dB,8.89760185815745e+01°)
1.35660432744768e+02	(-4.14650074125898e+01dB,8.89688965670168e+01°)
1.36604025675440e+02	(-4.14048110748024e+01dB,8.89617250220648e+01°)
1.37554181813975e+02	(-4.13446148718791e+01dB,8.89545036023572e+01°)
1.38510946811093e+02	(-4.12844188057026e+01dB,8.89472319611409e+01°)
1.39474366635041e+02	(-4.12242228781817e+01dB,8.89399097492540e+01°)
1.40444487573800e+02	(-4.11640270912518e+01dB,8.89325366151092e+01°)
1.41421356237310e+02	(-4.11038314468753e+01dB,8.89251122046772e+01°)
1.42405019559708e+02	(-4.10436359470423e+01dB,8.89176361614697e+01°)
1.43395524801583e+02	(-4.09834405937703e+01dB,8.89101081265222e+01°)
1.44392919552250e+02	(-4.09232453891051e+01dB,8.89025277383771e+01°)
1.45397251732032e+02	(-4.08630503351211e+01dB,8.88948946330662e+01°)
1.46408569594563e+02	(-4.08028554339217e+01dB,8.88872084440935e+01°)
1.47426921729111e+02	(-4.07426606876394e+01dB,8.88794688024175e+01°)
1.48452357062906e+02	(-4.06824660984368e+01dB,8.88716753364340e+01°)
1.49484924863494e+02	(-4.06222716685064e+01dB,8.88638276719576e+01°)
1.50524674741107e+02	(-4.05620774000716e+01dB,8.88559254322047e+01°)
1.51571656651040e+02	(-4.05018832953865e+01dB,8.88479682377748e+01°)
1.52625920896057e+02	(-4.04416893567369e+01dB,8.88399557066329e+01°)
1.53687518128802e+02	(-4.03814955864404e+01dB,8.88318874540909e+01°)
1.54756499354240e+02	(-4.03213019868471e+01dB,8.88237630927895e+01°)
1.55832915932101e+02	(-4.02611085603396e+01dB,8.88155822326794e+01°)
1.56916819579351e+02	(-4.02009153093341e+01dB,8.88073444810032e+01°)
1.58008262372676e+02	(-4.01407222362803e+01dB,8.87990494422759e+01°)
1.59107296750985e+02	(-4.00805293436621e+01dB,8.87906967182670e+01°)
1.60213975517925e+02	(-4.00203366339982e+01dB,8.87822859079804e+01°)
1.61328351844426e+02	(-3.99601441098423e+01dB,8.87738166076363e+01°)
1.62450479271248e+02	(-3.98999517737840e+01dB,8.87652884106513e+01°)
1.63580411711557e+02	(-3.98397596284487e+01dB,8.87567009076191e+01°)
1.64718203453516e+02	(-3.97795676764986e+01dB,8.87480536862912e+01°)
1.65863909162889e+02	(-3.97193759206332e+01dB,8.87393463315571e+01°)
1.67017583885675e+02	(-3.96591843635895e+01dB,8.87305784254243e+01°)
1.68179283050744e+02	(-3.95989930081427e+01dB,8.87217495469989e+01°)
1.69349062472506e+02	(-3.95388018571069e+01dB,8.87128592724651e+01°)
1.70526978353592e+02	(-3.94786109133352e+01dB,8.87039071750649e+01°)
1.71713087287552e+02	(-3.94184201797208e+01dB,8.86948928250783e+01°)
1.72907446261574e+02	(-3.93582296591972e+01dB,8.86858157898023e+01°)
1.74110112659226e+02	(-3.92980393547387e+01dB,8.86766756335305e+01°)
1.75321144263208e+02	(-3.92378492693612e+01dB,8.86674719175325e+01°)
1.76540599258132e+02	(-3.91776594061229e+01dB,8.86582042000325e+01°)
1.77768536233315e+02	(-3.91174697681244e+01dB,8.86488720361890e+01°)
1.79005014185596e+02	(-3.90572803585096e+01dB,8.86394749780727e+01°)
1.80250092522167e+02	(-3.89970911804664e+01dB,8.86300125746461e+01°)
1.81503831063433e+02	(-3.89369022372273e+01dB,8.86204843717415e+01°)
1.82766290045881e+02	(-3.88767135320696e+01dB,8.86108899120391e+01°)
1.84037530124976e+02	(-3.88165250683165e+01dB,8.86012287350461e+01°)
1.85317612378075e+02	(-3.87563368493377e+01dB,8.85915003770740e+01°)
1.86606598307363e+02	(-3.86961488785497e+01dB,8.85817043712169e+01°)
1.87904549842804e+02	(-3.86359611594170e+01dB,8.85718402473290e+01°)
1.89211529345120e+02	(-3.85757736954520e+01dB,8.85619075320029e+01°)
1.90527599608789e+02	(-3.85155864902166e+01dB,8.85519057485460e+01°)
1.91852823865054e+02	(-3.84553995473221e+01dB,8.85418344169590e+01°)
1.93187265784970e+02	(-3.83952128704303e+01dB,8.85316930539121e+01°)
1.94530989482458e+02	(-3.83350264632541e+01dB,8.85214811727225e+01°)
1.95884059517387e+02	(-3.82748403295583e+01dB,8.85111982833315e+01°)
1.97246540898673e+02	(-3.82146544731600e+01dB,8.85008438922804e+01°)
1.98618499087409e+02	(-3.81544688979300e+01dB,8.84904175026880e+01°)
2.00000000000002e+02	(-3.80942836077926e+01dB,8.84799186142261e+01°)
2.01391110011345e+02	(-3.80340986067273e+01dB,8.84693467230966e+01°)
2.02791895958007e+02	(-3.79739138987688e+01dB,8.84587013220067e+01°)
2.04202425141440e+02	(-3.79137294880086e+01dB,8.84479819001456e+01°)
2.05622765331215e+02	(-3.78535453785947e+01dB,8.84371879431595e+01°)
2.07052984768277e+02	(-3.77933615747334e+01dB,8.84263189331279e+01°)
2.08493152168226e+02	(-3.77331780806895e+01dB,8.84153743485383e+01°)
2.09943336724615e+02	(-3.76729949007875e+01dB,8.84043536642621e+01°)
2.11403608112278e+02	(-3.76128120394121e+01dB,8.83932563515293e+01°)
2.12874036490674e+02	(-3.75526295010094e+01dB,8.83820818779033e+01°)
2.14354692507260e+02	(-3.74924472900872e+01dB,8.83708297072560e+01°)
2.15845647300887e+02	(-3.74322654112164e+01dB,8.83594992997422e+01°)
2.17346972505213e+02	(-3.73720838690319e+01dB,8.83480901117739e+01°)
2.18858740252150e+02	(-3.73119026682330e+01dB,8.83366015959948e+01°)
2.20381023175324e+02	(-3.72517218135847e+01dB,8.83250332012538e+01°)
2.21913894413571e+02	(-3.71915413099184e+01dB,8.83133843725797e+01°)
2.23457427614446e+02	(-3.71313611621330e+01dB,8.83016545511542e+01°)
2.25011696937764e+02	(-3.70711813751958e+01dB,8.82898431742856e+01°)
2.26576777059162e+02	(-3.70110019541435e+01dB,8.82779496753823e+01°)
2.28152743173687e+02	(-3.69508229040828e+01dB,8.82659734839259e+01°)
2.29739670999409e+02	(-3.68906442301919e+01dB,8.82539140254442e+01°)
2.31337636781060e+02	(-3.68304659377213e+01dB,8.82417707214838e+01°)
2.32946717293693e+02	(-3.67702880319946e+01dB,8.82295429895831e+01°)
2.34566989846378e+02	(-3.67101105184098e+01dB,8.82172302432443e+01°)
2.36198532285908e+02	(-3.66499334024403e+01dB,8.82048318919060e+01°)
2.37841423000546e+02	(-3.65897566896356e+01dB,8.81923473409152e+01°)
2.39495740923788e+02	(-3.65295803856230e+01dB,8.81797759914989e+01°)
2.41161565538154e+02	(-3.64694044961081e+01dB,8.81671172407361e+01°)
2.42838976879012e+02	(-3.64092290268762e+01dB,8.81543704815294e+01°)
2.44528055538416e+02	(-3.63490539837934e+01dB,8.81415351025759e+01°)
2.46228882668986e+02	(-3.62888793728075e+01dB,8.81286104883385e+01°)
2.47941539987800e+02	(-3.62287051999494e+01dB,8.81155960190169e+01°)
2.49666109780325e+02	(-3.61685314713341e+01dB,8.81024910705184e+01°)
2.51402674904368e+02	(-3.61083581931621e+01dB,8.80892950144283e+01°)
2.53151318794059e+02	(-3.60481853717202e+01dB,8.80760072179800e+01°)
2.54912125463855e+02	(-3.59880130133831e+01dB,8.80626270440256e+01°)
2.56685179512583e+02	(-3.59278411246144e+01dB,8.80491538510058e+01°)
2.58470566127501e+02	(-3.58676697119679e+01dB,8.80355869929190e+01°)
2.60268371088389e+02	(-3.58074987820888e+01dB,8.80219258192918e+01°)
2.62078680771675e+02	(-3.57473283417151e+01dB,8.80081696751476e+01°)
2.63901582154582e+02	(-3.56871583976788e+01dB,8.79943179009760e+01°)
2.65737162819305e+02	(-3.56269889569071e+01dB,8.79803698327017e+01°)
2.67585510957225e+02	(-3.55668200264242e+01dB,8.79663248016533e+01°)
2.69446715373141e+02	(-3.55066516133521e+01dB,8.79521821345317e+01°)
2.71320865489537e+02	(-3.54464837249121e+01dB,8.79379411533784e+01°)
2.73208051350882e+02	(-3.53863163684263e+01dB,8.79236011755437e+01°)
2.75108363627952e+02	(-3.53261495513192e+01dB,8.79091615136544e+01°)
2.77021893622188e+02	(-3.52659832811186e+01dB,8.78946214755819e+01°)
2.78948733270084e+02	(-3.52058175654575e+01dB,8.78799803644090e+01°)
2.80888975147603e+02	(-3.51456524120754e+01dB,8.78652374783976e+01°)
2.82842712474622e+02	(-3.50854878288197e+01dB,8.78503921109556e+01°)
2.84810039119418e+02	(-3.50253238236474e+01dB,8.78354435506039e+01°)
2.86791049603169e+02	(-3.49651604046266e+01dB,8.78203910809426e+01°)
2.88785839104503e+02	(-3.49049975799377e+01dB,8.78052339806177e+01°)
2.90794503464065e+02	(-3.48448353578754e+01dB,8.77899715232869e+01°)
2.92817139189129e+02	(-3.47846737468503e+01dB,8.77746029775861e+01°)
2.94853843458224e+02	(-3.47245127553901e+01dB,8.77591276070944e+01°)
2.96904714125813e+02	(-3.46643523921416e+01dB,8.77435446703003e+01°)
2.98969849726991e+02	(-3.46041926658722e+01dB,8.77278534205661e+01°)
3.01049349482217e+02	(-3.45440335854716e+01dB,8.77120531060939e+01°)
3.03143313302083e+02	(-3.44838751599537e+01dB,8.76961429698896e+01°)
3.05251841792115e+02	(-3.44237173984579e+01dB,8.76801222497277e+01°)
3.07375036257606e+02	(-3.43635603102514e+01dB,8.76639901781158e+01°)
3.09512998708482e+02	(-3.43034039047305e+01dB,8.76477459822587e+01°)
3.11665831864204e+02	(-3.42432481914227e+01dB,8.76313888840218e+01°)
3.13833639158704e+02	(-3.41830931799883e+01dB,8.76149180998954e+01°)
3.16016524745355e+02	(-3.41229388802225e+01dB,8.75983328409575e+01°)
3.18214593501971e+02	(-3.40627853020571e+01dB,8.75816323128375e+01°)
3.20427951035853e+02	(-3.40026324555625e+01dB,8.75648157156785e+01°)
3.22656703688855e+02	(-3.39424803509495e+01dB,8.75478822441006e+01°)
3.24900958542498e+02	(-3.38823289985716e+01dB,8.75308310871628e+01°)
3.27160823423117e+02	(-3.38221784089264e+01dB,8.75136614283254e+01°)
3.29436406907034e+02	(-3.37620285926582e+01dB,8.74963724454122e+01°)
3.31727818325781e+02	(-3.37018795605597e+01dB,8.74789633105718e+01°)
3.34035167771352e+02	(-3.36417313235742e+01dB,8.74614331902392e+01°)
3.36358566101490e+02	(-3.35815838927977e+01dB,8.74437812450969e+01°)
3.38698124945015e+02	(-3.35214372794808e+01dB,8.74260066300363e+01°)
3.41053956707187e+02	(-3.34612914950312e+01dB,8.74081084941176e+01°)
3.43426174575106e+02	(-3.34011465510159e+01dB,8.73900859805310e+01°)
3.45814892523151e+02	(-3.33410024591629e+01dB,8.73719382265566e+01°)
3.48220225318454e+02	(-3.32808592313641e+01dB,8.73536643635241e+01°)
3.50642288526419e+02	(-3.32207168796771e+01dB,8.73352635167730e+01°)
3.53081198516267e+02	(-3.31605754163278e+01dB,8.73167348056116e+01°)
3.55537072466633e+02	(-3.31004348537126e+01dB,8.72980773432763e+01°)
3.58010028371194e+02	(-3.30402952044009e+01dB,8.72792902368904e+01°)
3.60500185044337e+02	(-3.29801564811373e+01dB,8.72603725874232e+01°)
3.63007662126869e+02	(-3.29200186968442e+01dB,8.72413234896476e+01°)
3.65532580091765e+02	(-3.28598818646244e+01dB,8.72221420320989e+01°)
3.68075060249955e+02	(-3.27997459977633e+01dB,8.72028272970323e+01°)
3.70635224756154e+02	(-3.27396111097316e+01dB,8.71833783603808e+01°)
3.73213196614728e+02	(-3.26794772141880e+01dB,8.71637942917119e+01°)
3.75809099685610e+02	(-3.26193443249816e+01dB,8.71440741541854e+01°)
3.78423058690244e+02	(-3.25592124561548e+01dB,8.71242170045095e+01°)
3.81055199217580e+02	(-3.24990816219458e+01dB,8.71042218928980e+01°)
3.83705647730111e+02	(-3.24389518367912e+01dB,8.70840878630258e+01°)
3.86374531569944e+02	(-3.23788231153292e+01dB,8.70638139519854e+01°)
3.89061978964920e+02	(-3.23186954724021e+01dB,8.70433991902422e+01°)
3.91768119034777e+02	(-3.22585689230591e+01dB,8.70228426015903e+01°)
3.94493081797350e+02	(-3.21984434825594e+01dB,8.70021432031072e+01°)
3.97236998174820e+02	(-3.21383191663749e+01dB,8.69813000051090e+01°)
4.00000000000006e+02	(-3.20781959901934e+01dB,8.69603120111047e+01°)
4.02782220022694e+02	(-3.20180739699213e+01dB,8.69391782177507e+01°)
4.05583791916018e+02	(-3.19579531216871e+01dB,8.69178976148046e+01°)
4.08404850282884e+02	(-3.18978334618439e+01dB,8.68964691850790e+01°)
4.11245530662433e+02	(-3.18377150069731e+01dB,8.68748919043951e+01°)
4.14105969536557e+02	(-3.17775977738871e+01dB,8.68531647415353e+01°)
4.16986304336455e+02	(-3.17174817796330e+01dB,8.68312866581967e+01°)
4.19886673449233e+02	(-3.16573670414953e+01dB,8.68092566089434e+01°)
4.22807216224559e+02	(-3.15972535769999e+01dB,8.67870735411586e+01°)
4.25748072981351e+02	(-3.15371414039167e+01dB,8.67647363949968e+01°)
4.28709385014524e+02	(-3.14770305402637e+01dB,8.67422441033354e+01°)
4.31691294601778e+02	(-3.14169210043098e+01dB,8.67195955917262e+01°)
4.34693945010430e+02	(-3.13568128145790e+01dB,8.66967897783461e+01°)
4.37717480504303e+02	(-3.12967059898532e+01dB,8.66738255739487e+01°)
4.40762046350651e+02	(-3.12366005491764e+01dB,8.66507018818139e+01°)
4.43827788827145e+02	(-3.11764965118581e+01dB,8.66274175976986e+01°)
4.46914855228895e+02	(-3.11163938974770e+01dB,8.66039716097866e+01°)
4.50023393875531e+02	(-3.10562927258847e+01dB,8.65803627986381e+01°)
4.53153554118327e+02	(-3.09961930172095e+01dB,8.65565900371389e+01°)
4.56305486347377e+02	(-3.09360947918604e+01dB,8.65326521904498e+01°)
4.59479341998822e+02	(-3.08759980705311e+01dB,8.65085481159546e+01°)
4.62675273562123e+02	(-3.08159028742034e+01dB,8.64842766632093e+01°)
4.65893434587390e+02	(-3.07558092241519e+01dB,8.64598366738895e+01°)
4.69133979692759e+02	(-3.06957171419475e+01dB,8.64352269817386e+01°)
4.72397064571820e+02	(-3.06356266494621e+01dB,8.64104464125152e+01°)
4.75682846001096e+02	(-3.05755377688721e+01dB,8.63854937839400e+01°)
4.78991481847580e+02	(-3.05154505226634e+01dB,8.63603679056429e+01°)
4.82323131076312e+02	(-3.04553649336349e+01dB,8.63350675791096e+01°)
4.85677953758027e+02	(-3.03952810249037e+01dB,8.63095915976275e+01°)
4.89056111076836e+02	(-3.03351988199088e+01dB,8.62839387462319e+01°)
4.92457765337975e+02	(-3.02751183424159e+01dB,8.62581078016516e+01°)
4.95883079975603e+02	(-3.02150396165220e+01dB,8.62320975322541e+01°)
4.99332219560653e+02	(-3.01549626666600e+01dB,8.62059066979904e+01°)
5.02805349808740e+02	(-3.00948875176031e+01dB,8.61795340503399e+01°)
5.06302637588121e+02	(-3.00348141944698e+01dB,8.61529783322547e+01°)
5.09824250927714e+02	(-2.99747427227287e+01dB,8.61262382781037e+01°)
5.13370359025171e+02	(-2.99146731282033e+01dB,8.60993126136160e+01°)
5.16941132255006e+02	(-2.98546054370768e+01dB,8.60722000558245e+01°)
5.20536742176783e+02	(-2.97945396758973e+01dB,8.60448993130089e+01°)
5.24157361543355e+02	(-2.97344758715830e+01dB,8.60174090846387e+01°)
5.27803164309167e+02	(-2.96744140514267e+01dB,8.59897280613151e+01°)
5.31474325638614e+02	(-2.96143542431019e+01dB,8.59618549247136e+01°)
5.35171021914455e+02	(-2.95542964746675e+01dB,8.59337883475256e+01°)
5.38893430746286e+02	(-2.94942407745732e+01dB,8.59055269933998e+01°)
5.42641730979079e+02	(-2.94341871716651e+01dB,8.58770695168832e+01°)
5.46416102701768e+02	(-2.93741356951911e+01dB,8.58484145633623e+01°)
5.50216727255908e+02	(-2.93140863748067e+01dB,8.58195607690033e+01°)
5.54043787244380e+02	(-2.92540392405802e+01dB,8.57905067606923e+01°)
5.57897466540173e+02	(-2.91939943229990e+01dB,8.57612511559754e+01°)
5.61777950295209e+02	(-2.91339516529750e+01dB,8.57317925629977e+01°)
5.65685424949249e+02	(-2.90739112618506e+01dB,8.57021295804430e+01°)
5.69620078238839e+02	(-2.90138731814047e+01dB,8.56722607974723e+01°)
5.73582099206342e+02	(-2.89538374438589e+01dB,8.56421847936625e+01°)
5.77571678209009e+02	(-2.88938040818834e+01dB,8.56119001389448e+01°)
5.81589006928135e+02	(-2.88337731286035e+01dB,8.55814053935422e+01°)
5.85634278378261e+02	(-2.87737446176055e+01dB,8.55506991079073e+01°)
5.89707686916452e+02	(-2.87137185829436e+01dB,8.55197798226596e+01°)
5.93809428251631e+02	(-2.86536950591461e+01dB,8.54886460685222e+01°)
5.97939699453987e+02	(-2.85936740812219e+01dB,8.54572963662585e+01°)
6.02098698964439e+02	(-2.85336556846675e+01dB,8.54257292266087e+01°)
6.06286626604171e+02	(-2.84736399054735e+01dB,8.53939431502252e+01°)
6.10503683584236e+02	(-2.84136267801314e+01dB,8.53619366276086e+01°)
6.14750072515217e+02	(-2.83536163456408e+01dB,8.53297081390432e+01°)
6.19025997416968e+02	(-2.82936086395162e+01dB,8.52972561545312e+01°)
6.23331663728412e+02	(-2.82336036997945e+01dB,8.52645791337283e+01°)
6.27667278317413e+02	(-2.81736015650416e+01dB,8.52316755258773e+01°)
6.32033049490714e+02	(-2.81136022743605e+01dB,8.51985437697423e+01°)
6.36429187003948e+02	(-2.80536058673982e+01dB,8.51651822935426e+01°)
6.40855902071711e+02	(-2.79936123843533e+01dB,8.51315895148859e+01°)
6.45313407377714e+02	(-2.79336218659840e+01dB,8.50977638407010e+01°)
6.49801917085002e+02	(-2.78736343536155e+01dB,8.50637036671714e+01°)
6.54321646846238e+02	(-2.78136498891479e+01dB,8.50294073796666e+01°)
6.58872813814072e+02	(-2.77536685150642e+01dB,8.49948733526751e+01°)
6.63455636651567e+02	(-2.76936902744386e+01dB,8.49600999497356e+01°)
6.68070335542709e+02	(-2.76337152109444e+01dB,8.49250855233688e+01°)
6.72717132202986e+02	(-2.75737433688621e+01dB,8.48898284150083e+01°)
6.77396249890036e+02	(-2.75137747930885e+01dB,8.48543269549316e+01°)
6.82107913414380e+02	(-2.74538095291445e+01dB,8.48185794621905e+01°)
6.86852349150217e+02	(-2.73938476231843e+01dB,8.47825842445414e+01°)
6.91629785046307e+02	(-2.73338891220036e+01dB,8.47463395983750e+01°)
6.96440450636914e+02	(-2.72739340730491e+01dB,8.47098438086462e+01°)
7.01284577052843e+02	(-2.72139825244269e+01dB,8.46730951488032e+01°)
7.06162397032539e+02	(-2.71540345249121e+01dB,8.46360918807166e+01°)
7.11074144933271e+02	(-2.70940901239578e+01dB,8.45988322546079e+01°)
7.16020056742393e+02	(-2.70341493717045e+01dB,8.45613145089780e+01°)
7.21000370088680e+02	(-2.69742123189896e+01dB,8.45235368705354e+01°)
7.26015324253744e+02	(-2.69142790173570e+01dB,8.44854975541239e+01°)
7.31065160183536e+02	(-2.68543495190671e+01dB,8.44471947626500e+01°)
7.36150120499916e+02	(-2.67944238771062e+01dB,8.44086266870104e+01°)
