Freq.	V(n009)*10
1.00000000000000e+02	(-4.41136927674619e+01dB,8.92528471436673e+01°)
1.00695555005672e+02	(-4.40534911454823e+01dB,8.92476502398726e+01°)
1.01395947979003e+02	(-4.39932895846294e+01dB,8.92424171878197e+01°)
1.02101212570719e+02	(-4.39330880857572e+01dB,8.92371477360583e+01°)
1.02811382665607e+02	(-4.38728866497316e+01dB,8.92318416313885e+01°)
1.03526492384138e+02	(-4.38126852774306e+01dB,8.92264986188489e+01°)
1.04246576084112e+02	(-4.37524839697445e+01dB,8.92211184417044e+01°)
1.04971668362307e+02	(-4.36922827275761e+01dB,8.92157008414336e+01°)
1.05701804056138e+02	(-4.36320815518406e+01dB,8.92102455577165e+01°)
1.06437018245336e+02	(-4.35718804434663e+01dB,8.92047523284222e+01°)
1.07177346253629e+02	(-4.35116794033943e+01dB,8.91992208895959e+01°)
1.07922823650443e+02	(-4.34514784325790e+01dB,8.91936509754464e+01°)
1.08673486252606e+02	(-4.33912775319878e+01dB,8.91880423183332e+01°)
1.09429370126074e+02	(-4.33310767026022e+01dB,8.91823946487541e+01°)
1.10190511587661e+02	(-4.32708759454168e+01dB,8.91767076953314e+01°)
1.10956947206785e+02	(-4.32106752614406e+01dB,8.91709811847997e+01°)
1.11728713807222e+02	(-4.31504746516965e+01dB,8.91652148419922e+01°)
1.12505848468881e+02	(-4.30902741172217e+01dB,8.91594083898276e+01°)
1.13288388529580e+02	(-4.30300736590680e+01dB,8.91535615492970e+01°)
1.14076371586843e+02	(-4.29698732783017e+01dB,8.91476740394501e+01°)
1.14869835499704e+02	(-4.29096729760043e+01dB,8.91417455773820e+01°)
1.15668818390529e+02	(-4.28494727532723e+01dB,8.91357758782194e+01°)
1.16473358646846e+02	(-4.27892726112174e+01dB,8.91297646551070e+01°)
1.17283494923188e+02	(-4.27290725509671e+01dB,8.91237116191938e+01°)
1.18099266142953e+02	(-4.26688725736644e+01dB,8.91176164796189e+01°)
1.18920711500272e+02	(-4.26086726804686e+01dB,8.91114789434978e+01°)
1.19747870461893e+02	(-4.25484728725551e+01dB,8.91052987159081e+01°)
1.20580782769076e+02	(-4.24882731511155e+01dB,8.90990754998756e+01°)
1.21419488439505e+02	(-4.24280735173583e+01dB,8.90928089963596e+01°)
1.22264027769207e+02	(-4.23678739725090e+01dB,8.90864989042390e+01°)
1.23114441334492e+02	(-4.23076745178101e+01dB,8.90801449202972e+01°)
1.23970769993899e+02	(-4.22474751545215e+01dB,8.90737467392083e+01°)
1.24833054890161e+02	(-4.21872758839207e+01dB,8.90673040535217e+01°)
1.25701337452183e+02	(-4.21270767073031e+01dB,8.90608165536477e+01°)
1.26575659397028e+02	(-4.20668776259823e+01dB,8.90542839278425e+01°)
1.27456062731927e+02	(-4.20066786412902e+01dB,8.90477058621931e+01°)
1.28342589756291e+02	(-4.19464797545773e+01dB,8.90410820406024e+01°)
1.29235283063750e+02	(-4.18862809672132e+01dB,8.90344121447740e+01°)
1.30134185544194e+02	(-4.18260822805863e+01dB,8.90276958541965e+01°)
1.31039340385837e+02	(-4.17658836961049e+01dB,8.90209328461286e+01°)
1.31950791077290e+02	(-4.17056852151966e+01dB,8.90141227955832e+01°)
1.32868581409652e+02	(-4.16454868393091e+01dB,8.90072653753120e+01°)
1.33792755478612e+02	(-4.15852885699106e+01dB,8.90003602557896e+01°)
1.34723357686569e+02	(-4.15250904084896e+01dB,8.89934071051976e+01°)
1.35660432744768e+02	(-4.14648923565554e+01dB,8.89864055894090e+01°)
1.36604025675440e+02	(-4.14046944156386e+01dB,8.89793553719715e+01°)
1.37554181813975e+02	(-4.13444965872911e+01dB,8.89722561140919e+01°)
1.38510946811093e+02	(-4.12842988730866e+01dB,8.89651074746194e+01°)
1.39474366635041e+02	(-4.12241012746209e+01dB,8.89579091100296e+01°)
1.40444487573800e+02	(-4.11639037935118e+01dB,8.89506606744075e+01°)
1.41421356237310e+02	(-4.11037064314003e+01dB,8.89433618194311e+01°)
1.42405019559708e+02	(-4.10435091899498e+01dB,8.89360121943545e+01°)
1.43395524801583e+02	(-4.09833120708475e+01dB,8.89286114459915e+01°)
1.44392919552250e+02	(-4.09231150758038e+01dB,8.89211592186978e+01°)
1.45397251732032e+02	(-4.08629182065534e+01dB,8.89136551543545e+01°)
1.46408569594563e+02	(-4.08027214648550e+01dB,8.89060988923508e+01°)
1.47426921729111e+02	(-4.07425248524921e+01dB,8.88984900695662e+01°)
1.48452357062906e+02	(-4.06823283712732e+01dB,8.88908283203537e+01°)
1.49484924863494e+02	(-4.06221320230320e+01dB,8.88831132765216e+01°)
1.50524674741107e+02	(-4.05619358096280e+01dB,8.88753445673162e+01°)
1.51571656651040e+02	(-4.05017397329467e+01dB,8.88675218194037e+01°)
1.52625920896057e+02	(-4.04415437948999e+01dB,8.88596446568522e+01°)
1.53687518128802e+02	(-4.03813479974264e+01dB,8.88517127011140e+01°)
1.54756499354240e+02	(-4.03211523424921e+01dB,8.88437255710068e+01°)
1.55832915932101e+02	(-4.02609568320903e+01dB,8.88356828826959e+01°)
1.56916819579351e+02	(-4.02007614682424e+01dB,8.88275842496752e+01°)
1.58008262372676e+02	(-4.01405662529979e+01dB,8.88194292827492e+01°)
1.59107296750985e+02	(-4.00803711884353e+01dB,8.88112175900136e+01°)
1.60213975517925e+02	(-4.00201762766619e+01dB,8.88029487768370e+01°)
1.61328351844426e+02	(-3.99599815198150e+01dB,8.87946224458416e+01°)
1.62450479271248e+02	(-3.98997869200613e+01dB,8.87862381968841e+01°)
1.63580411711557e+02	(-3.98395924795983e+01dB,8.87777956270365e+01°)
1.64718203453516e+02	(-3.97793982006540e+01dB,8.87692943305667e+01°)
1.65863909162889e+02	(-3.97192040854878e+01dB,8.87607338989189e+01°)
1.67017583885675e+02	(-3.96590101363908e+01dB,8.87521139206940e+01°)
1.68179283050744e+02	(-3.95988163556860e+01dB,8.87434339816297e+01°)
1.69349062472506e+02	(-3.95386227457292e+01dB,8.87346936645808e+01°)
1.70526978353592e+02	(-3.94784293089091e+01dB,8.87258925494987e+01°)
1.71713087287552e+02	(-3.94182360476480e+01dB,8.87170302134115e+01°)
1.72907446261574e+02	(-3.93580429644020e+01dB,8.87081062304036e+01°)
1.74110112659226e+02	(-3.92978500616617e+01dB,8.86991201715950e+01°)
1.75321144263208e+02	(-3.92376573419527e+01dB,8.86900716051209e+01°)
1.76540599258132e+02	(-3.91774648078359e+01dB,8.86809600961108e+01°)
1.77768536233315e+02	(-3.91172724619083e+01dB,8.86717852066675e+01°)
1.79005014185596e+02	(-3.90570803068031e+01dB,8.86625464958458e+01°)
1.80250092522167e+02	(-3.89968883451906e+01dB,8.86532435196319e+01°)
1.81503831063433e+02	(-3.89366965797784e+01dB,8.86438758309215e+01°)
1.82766290045881e+02	(-3.88765050133122e+01dB,8.86344429794983e+01°)
1.84037530124976e+02	(-3.88163136485762e+01dB,8.86249445120125e+01°)
1.85317612378075e+02	(-3.87561224883938e+01dB,8.86153799719589e+01°)
1.86606598307363e+02	(-3.86959315356276e+01dB,8.86057488996548e+01°)
1.87904549842804e+02	(-3.86357407931808e+01dB,8.85960508322181e+01°)
1.89211529345120e+02	(-3.85755502639971e+01dB,8.85862853035446e+01°)
1.90527599608789e+02	(-3.85153599510616e+01dB,8.85764518442860e+01°)
1.91852823865054e+02	(-3.84551698574014e+01dB,8.85665499818272e+01°)
1.93187265784970e+02	(-3.83949799860858e+01dB,8.85565792402632e+01°)
1.94530989482458e+02	(-3.83347903402274e+01dB,8.85465391403764e+01°)
1.95884059517387e+02	(-3.82746009229824e+01dB,8.85364291996137e+01°)
1.97246540898673e+02	(-3.82144117375514e+01dB,8.85262489320629e+01°)
1.98618499087409e+02	(-3.81542227871799e+01dB,8.85159978484296e+01°)
2.00000000000002e+02	(-3.80940340751589e+01dB,8.85056754560133e+01°)
2.01391110011345e+02	(-3.80338456048257e+01dB,8.84952812586841e+01°)
2.02791895958007e+02	(-3.79736573795644e+01dB,8.84848147568583e+01°)
2.04202425141440e+02	(-3.79134694028066e+01dB,8.84742754474747e+01°)
2.05622765331215e+02	(-3.78532816780323e+01dB,8.84636628239702e+01°)
2.07052984768277e+02	(-3.77930942087702e+01dB,8.84529763762554e+01°)
2.08493152168226e+02	(-3.77329069985985e+01dB,8.84422155906902e+01°)
2.09943336724615e+02	(-3.76727200511459e+01dB,8.84313799500586e+01°)
2.11403608112278e+02	(-3.76125333700918e+01dB,8.84204689335443e+01°)
2.12874036490674e+02	(-3.75523469591677e+01dB,8.84094820167054e+01°)
2.14354692507260e+02	(-3.74921608221570e+01dB,8.83984186714490e+01°)
2.15845647300887e+02	(-3.74319749628968e+01dB,8.83872783660057e+01°)
2.17346972505213e+02	(-3.73717893852778e+01dB,8.83760605649045e+01°)
2.18858740252150e+02	(-3.73116040932455e+01dB,8.83647647289462e+01°)
2.20381023175324e+02	(-3.72514190908008e+01dB,8.83533903151782e+01°)
2.21913894413571e+02	(-3.71912343820009e+01dB,8.83419367768676e+01°)
2.23457427614446e+02	(-3.71310499709601e+01dB,8.83304035634755e+01°)
2.25011696937764e+02	(-3.70708658618505e+01dB,8.83187901206301e+01°)
2.26576777059162e+02	(-3.70106820589028e+01dB,8.83070958900999e+01°)
2.28152743173687e+02	(-3.69504985664072e+01dB,8.82953203097671e+01°)
2.29739670999409e+02	(-3.68903153887145e+01dB,8.82834628136002e+01°)
2.31337636781060e+02	(-3.68301325302363e+01dB,8.82715228316270e+01°)
2.32946717293693e+02	(-3.67699499954467e+01dB,8.82594997899070e+01°)
2.34566989846378e+02	(-3.67097677888823e+01dB,8.82473931105035e+01°)
2.36198532285908e+02	(-3.66495859151439e+01dB,8.82352022114561e+01°)
2.37841423000546e+02	(-3.65894043788968e+01dB,8.82229265067525e+01°)
2.39495740923788e+02	(-3.65292231848722e+01dB,8.82105654063003e+01°)
2.41161565538154e+02	(-3.64690423378676e+01dB,8.81981183158983e+01°)
2.42838976879012e+02	(-3.64088618427484e+01dB,8.81855846372081e+01°)
2.44528055538416e+02	(-3.63486817044481e+01dB,8.81729637677253e+01°)
2.46228882668986e+02	(-3.62885019279700e+01dB,8.81602551007504e+01°)
2.47941539987800e+02	(-3.62283225183876e+01dB,8.81474580253592e+01°)
2.49666109780325e+02	(-3.61681434808461e+01dB,8.81345719263738e+01°)
2.51402674904368e+02	(-3.61079648205630e+01dB,8.81215961843329e+01°)
2.53151318794059e+02	(-3.60477865428293e+01dB,8.81085301754615e+01°)
2.54912125463855e+02	(-3.59876086530107e+01dB,8.80953732716414e+01°)
2.56685179512583e+02	(-3.59274311565482e+01dB,8.80821248403804e+01°)
2.58470566127501e+02	(-3.58672540589598e+01dB,8.80687842447822e+01°)
2.60268371088389e+02	(-3.58070773658412e+01dB,8.80553508435153e+01°)
2.62078680771675e+02	(-3.57469010828667e+01dB,8.80418239907826e+01°)
2.63901582154582e+02	(-3.56867252157910e+01dB,8.80282030362897e+01°)
2.65737162819305e+02	(-3.56265497704496e+01dB,8.80144873252137e+01°)
2.67585510957225e+02	(-3.55663747527606e+01dB,8.80006761981719e+01°)
2.69446715373141e+02	(-3.55062001687252e+01dB,8.79867689911897e+01°)
2.71320865489537e+02	(-3.54460260244296e+01dB,8.79727650356686e+01°)
2.73208051350882e+02	(-3.53858523260455e+01dB,8.79586636583542e+01°)
2.75108363627952e+02	(-3.53256790798320e+01dB,8.79444641813033e+01°)
2.77021893622188e+02	(-3.52655062921364e+01dB,8.79301659218517e+01°)
2.78948733270084e+02	(-3.52053339693955e+01dB,8.79157681925808e+01°)
2.80888975147603e+02	(-3.51451621181370e+01dB,8.79012703012849e+01°)
2.82842712474622e+02	(-3.50849907449807e+01dB,8.78866715509372e+01°)
2.84810039119418e+02	(-3.50248198566400e+01dB,8.78719712396569e+01°)
2.86791049603169e+02	(-3.49646494599231e+01dB,8.78571686606749e+01°)
2.88785839104503e+02	(-3.49044795617341e+01dB,8.78422631022998e+01°)
2.90794503464065e+02	(-3.48443101690748e+01dB,8.78272538478834e+01°)
2.92817139189129e+02	(-3.47841412890460e+01dB,8.78121401757867e+01°)
2.94853843458224e+02	(-3.47239729288487e+01dB,8.77969213593443e+01°)
2.96904714125813e+02	(-3.46638050957855e+01dB,8.77815966668298e+01°)
2.98969849726991e+02	(-3.46036377972627e+01dB,8.77661653614208e+01°)
3.01049349482217e+02	(-3.45434710407907e+01dB,8.77506267011625e+01°)
3.03143313302083e+02	(-3.44833048339865e+01dB,8.77349799389328e+01°)
3.05251841792115e+02	(-3.44231391845747e+01dB,8.77192243224057e+01°)
3.07375036257606e+02	(-3.43629741003890e+01dB,8.77033590940152e+01°)
3.09512998708482e+02	(-3.43028095893741e+01dB,8.76873834909187e+01°)
3.11665831864204e+02	(-3.42426456595870e+01dB,8.76712967449604e+01°)
3.13833639158704e+02	(-3.41824823191988e+01dB,8.76550980826339e+01°)
3.16016524745355e+02	(-3.41223195764960e+01dB,8.76387867250452e+01°)
3.18214593501971e+02	(-3.40621574398826e+01dB,8.76223618878750e+01°)
3.20427951035853e+02	(-3.40019959178815e+01dB,8.76058227813407e+01°)
3.22656703688855e+02	(-3.39418350191364e+01dB,8.75891686101587e+01°)
3.24900958542498e+02	(-3.38816747524133e+01dB,8.75723985735058e+01°)
3.27160823423117e+02	(-3.38215151266023e+01dB,8.75555118649804e+01°)
3.29436406907034e+02	(-3.37613561507195e+01dB,8.75385076725641e+01°)
3.31727818325781e+02	(-3.37011978339088e+01dB,8.75213851785819e+01°)
3.34035167771352e+02	(-3.36410401854437e+01dB,8.75041435596633e+01°)
3.36358566101490e+02	(-3.35808832147292e+01dB,8.74867819867024e+01°)
3.38698124945015e+02	(-3.35207269313034e+01dB,8.74692996248179e+01°)
3.41053956707187e+02	(-3.34605713448400e+01dB,8.74516956333128e+01°)
3.43426174575106e+02	(-3.34004164651495e+01dB,8.74339691656337e+01°)
3.45814892523151e+02	(-3.33402623021820e+01dB,8.74161193693307e+01°)
3.48220225318454e+02	(-3.32801088660284e+01dB,8.73981453860152e+01°)
3.50642288526419e+02	(-3.32199561669231e+01dB,8.73800463513195e+01°)
3.53081198516267e+02	(-3.31598042152457e+01dB,8.73618213948544e+01°)
3.55537072466633e+02	(-3.30996530215229e+01dB,8.73434696401679e+01°)
3.58010028371194e+02	(-3.30395025964313e+01dB,8.73249902047023e+01°)
3.60500185044337e+02	(-3.29793529507989e+01dB,8.73063821997521e+01°)
3.63007662126869e+02	(-3.29192040956075e+01dB,8.72876447304208e+01°)
3.65532580091765e+02	(-3.28590560419950e+01dB,8.72687768955782e+01°)
3.68075060249955e+02	(-3.27989088012578e+01dB,8.72497777878168e+01°)
3.70635224756154e+02	(-3.27387623848525e+01dB,8.72306464934077e+01°)
3.73213196614728e+02	(-3.26786168043990e+01dB,8.72113820922572e+01°)
3.75809099685610e+02	(-3.26184720716820e+01dB,8.71919836578620e+01°)
3.78423058690244e+02	(-3.25583281986543e+01dB,8.71724502572646e+01°)
3.81055199217580e+02	(-3.24981851974385e+01dB,8.71527809510086e+01°)
3.83705647730111e+02	(-3.24380430803298e+01dB,8.71329747930933e+01°)
3.86374531569944e+02	(-3.23779018597984e+01dB,8.71130308309280e+01°)
3.89061978964920e+02	(-3.23177615484920e+01dB,8.70929481052864e+01°)
3.91768119034777e+02	(-3.22576221592386e+01dB,8.70727256502603e+01°)
3.94493081797350e+02	(-3.21974837050488e+01dB,8.70523624932127e+01°)
3.97236998174820e+02	(-3.21373461991185e+01dB,8.70318576547318e+01°)
4.00000000000006e+02	(-3.20772096548320e+01dB,8.70112101485829e+01°)
4.02782220022694e+02	(-3.20170740857639e+01dB,8.69904189816618e+01°)
4.05583791916018e+02	(-3.19569395056829e+01dB,8.69694831539463e+01°)
4.08404850282884e+02	(-3.18968059285536e+01dB,8.69484016584485e+01°)
4.11245530662433e+02	(-3.18366733685401e+01dB,8.69271734811663e+01°)
4.14105969536557e+02	(-3.17765418400086e+01dB,8.69057976010344e+01°)
4.16986304336455e+02	(-3.17164113575302e+01dB,8.68842729898754e+01°)
4.19886673449233e+02	(-3.16562819358843e+01dB,8.68625986123503e+01°)
4.22807216224559e+02	(-3.15961535900610e+01dB,8.68407734259088e+01°)
4.25748072981351e+02	(-3.15360263352649e+01dB,8.68187963807389e+01°)
4.28709385014524e+02	(-3.14759001869176e+01dB,8.67966664197169e+01°)
4.31691294601778e+02	(-3.14157751606613e+01dB,8.67743824783559e+01°)
4.34693945010430e+02	(-3.13556512723616e+01dB,8.67519434847557e+01°)
4.37717480504303e+02	(-3.12955285381111e+01dB,8.67293483595501e+01°)
4.40762046350651e+02	(-3.12354069742326e+01dB,8.67065960158562e+01°)
4.43827788827145e+02	(-3.11752865972825e+01dB,8.66836853592213e+01°)
4.46914855228895e+02	(-3.11151674240541e+01dB,8.66606152875711e+01°)
4.50023393875531e+02	(-3.10550494715810e+01dB,8.66373846911561e+01°)
4.53153554118327e+02	(-3.09949327571408e+01dB,8.66139924524989e+01°)
4.56305486347377e+02	(-3.09348172982588e+01dB,8.65904374463407e+01°)
4.59479341998822e+02	(-3.08747031127112e+01dB,8.65667185395868e+01°)
4.62675273562123e+02	(-3.08145902185288e+01dB,8.65428345912525e+01°)
4.65893434587390e+02	(-3.07544786340014e+01dB,8.65187844524086e+01°)
4.69133979692759e+02	(-3.06943683776806e+01dB,8.64945669661264e+01°)
4.72397064571820e+02	(-3.06342594683845e+01dB,8.64701809674220e+01°)
4.75682846001096e+02	(-3.05741519252009e+01dB,8.64456252832008e+01°)
4.78991481847580e+02	(-3.05140457674920e+01dB,8.64208987322009e+01°)
4.82323131076312e+02	(-3.04539410148976e+01dB,8.63960001249374e+01°)
4.85677953758027e+02	(-3.03938376873397e+01dB,8.63709282636447e+01°)
4.89056111076836e+02	(-3.03337358050268e+01dB,8.63456819422198e+01°)
4.92457765337975e+02	(-3.02736353884576e+01dB,8.63202599461643e+01°)
4.95883079975603e+02	(-3.02135364584253e+01dB,8.62946610525267e+01°)
4.99332219560653e+02	(-3.01534390360226e+01dB,8.62688840298437e+01°)
5.02805349808740e+02	(-3.00933431426452e+01dB,8.62429276380816e+01°)
5.06302637588121e+02	(-3.00332487999969e+01dB,8.62167906285774e+01°)
5.09824250927714e+02	(-2.99731560300940e+01dB,8.61904717439788e+01°)
5.13370359025171e+02	(-2.99130648552695e+01dB,8.61639697181843e+01°)
5.16941132255006e+02	(-2.98529752981785e+01dB,8.61372832762835e+01°)
5.20536742176783e+02	(-2.97928873818022e+01dB,8.61104111344957e+01°)
5.24157361543355e+02	(-2.97328011294532e+01dB,8.60833520001092e+01°)
5.27803164309167e+02	(-2.96727165647802e+01dB,8.60561045714197e+01°)
5.31474325638614e+02	(-2.96126337117730e+01dB,8.60286675376684e+01°)
5.35171021914455e+02	(-2.95525525947676e+01dB,8.60010395789801e+01°)
5.38893430746286e+02	(-2.94924732384510e+01dB,8.59732193662998e+01°)
5.42641730979079e+02	(-2.94323956678669e+01dB,8.59452055613306e+01°)
5.46416102701768e+02	(-2.93723199084207e+01dB,8.59169968164693e+01°)
5.50216727255908e+02	(-2.93122459858845e+01dB,8.58885917747433e+01°)
5.54043787244380e+02	(-2.92521739264034e+01dB,8.58599890697459e+01°)
5.57897466540173e+02	(-2.91921037565001e+01dB,8.58311873255721e+01°)
5.61777950295209e+02	(-2.91320355030810e+01dB,8.58021851567528e+01°)
5.65685424949249e+02	(-2.90719691934420e+01dB,8.57729811681904e+01°)
5.69620078238839e+02	(-2.90119048552737e+01dB,8.57435739550918e+01°)
5.73582099206342e+02	(-2.89518425166678e+01dB,8.57139621029032e+01°)
5.77571678209009e+02	(-2.88917822061229e+01dB,8.56841441872426e+01°)
5.81589006928135e+02	(-2.88317239525505e+01dB,8.56541187738332e+01°)
5.85634278378261e+02	(-2.87716677852809e+01dB,8.56238844184360e+01°)
5.89707686916452e+02	(-2.87116137340701e+01dB,8.55934396667816e+01°)
5.93809428251631e+02	(-2.86515618291052e+01dB,8.55627830545018e+01°)
5.97939699453987e+02	(-2.85915121010117e+01dB,8.55319131070616e+01°)
6.02098698964439e+02	(-2.85314645808594e+01dB,8.55008283396893e+01°)
6.06286626604171e+02	(-2.84714193001692e+01dB,8.54695272573076e+01°)
6.10503683584236e+02	(-2.84113762909200e+01dB,8.54380083544631e+01°)
6.14750072515217e+02	(-2.83513355855552e+01dB,8.54062701152566e+01°)
6.19025997416968e+02	(-2.82912972169900e+01dB,8.53743110132719e+01°)
6.23331663728412e+02	(-2.82312612186181e+01dB,8.53421295115048e+01°)
6.27667278317413e+02	(-2.81712276243189e+01dB,8.53097240622915e+01°)
6.32033049490714e+02	(-2.81111964684650e+01dB,8.52770931072368e+01°)
6.36429187003948e+02	(-2.80511677859292e+01dB,8.52442350771416e+01°)
6.40855902071711e+02	(-2.79911416120921e+01dB,8.52111483919300e+01°)
6.45313407377714e+02	(-2.79311179828500e+01dB,8.51778314605763e+01°)
6.49801917085002e+02	(-2.78710969346220e+01dB,8.51442826810314e+01°)
6.54321646846238e+02	(-2.78110785043584e+01dB,8.51105004401488e+01°)
6.58872813814072e+02	(-2.77510627295482e+01dB,8.50764831136100e+01°)
6.63455636651567e+02	(-2.76910496482276e+01dB,8.50422290658499e+01°)
6.68070335542709e+02	(-2.76310392989876e+01dB,8.50077366499816e+01°)
6.72717132202986e+02	(-2.75710317209829e+01dB,8.49730042077205e+01°)
6.77396249890036e+02	(-2.75110269539401e+01dB,8.49380300693088e+01°)
6.82107913414380e+02	(-2.74510250381659e+01dB,8.49028125534384e+01°)
6.86852349150217e+02	(-2.73910260145567e+01dB,8.48673499671750e+01°)
6.91629785046307e+02	(-2.73310299246063e+01dB,8.48316406058799e+01°)
6.96440450636914e+02	(-2.72710368104160e+01dB,8.47956827531331e+01°)
7.01284577052843e+02	(-2.72110467147027e+01dB,8.47594746806551e+01°)
7.06162397032539e+02	(-2.71510596808088e+01dB,8.47230146482285e+01°)
7.11074144933271e+02	(-2.70910757527114e+01dB,8.46863009036192e+01°)
7.16020056742393e+02	(-2.70310949750317e+01dB,8.46493316824972e+01°)
7.21000370088680e+02	(-2.69711173930449e+01dB,8.46121052083576e+01°)
7.26015324253744e+02	(-2.69111430526898e+01dB,8.45746196924397e+01°)
7.31065160183536e+02	(-2.68511720005788e+01dB,8.45368733336477e+01°)
7.36150120499916e+02	(-2.67912042840083e+01dB,8.44988643184695e+01°)
