Freq.	V(n045)*10
1.00000000000000e+02	(-4.41139031859548e+01dB,8.92007217167627e+01°)
1.00695555005672e+02	(-4.40537044985314e+01dB,8.91951628384873e+01°)
1.01395947979003e+02	(-4.39935059131216e+01dB,8.91895653065302e+01°)
1.02101212570719e+02	(-4.39333074311480e+01dB,8.91839288522724e+01°)
1.02811382665607e+02	(-4.38731090540529e+01dB,8.91782532052316e+01°)
1.03526492384138e+02	(-4.38129107832988e+01dB,8.91725380930491e+01°)
1.04246576084112e+02	(-4.37527126203684e+01dB,8.91667832414770e+01°)
1.04971668362307e+02	(-4.36925145667653e+01dB,8.91609883743654e+01°)
1.05701804056138e+02	(-4.36323166240138e+01dB,8.91551532136489e+01°)
1.06437018245336e+02	(-4.35721187936596e+01dB,8.91492774793334e+01°)
1.07177346253629e+02	(-4.35119210772699e+01dB,8.91433608894833e+01°)
1.07922823650443e+02	(-4.34517234764336e+01dB,8.91374031602074e+01°)
1.08673486252606e+02	(-4.33915259927619e+01dB,8.91314040056461e+01°)
1.09429370126074e+02	(-4.33313286278883e+01dB,8.91253631379573e+01°)
1.10190511587661e+02	(-4.32711313834691e+01dB,8.91192802673030e+01°)
1.10956947206785e+02	(-4.32109342611837e+01dB,8.91131551018355e+01°)
1.11728713807222e+02	(-4.31507372627348e+01dB,8.91069873476837e+01°)
1.12505848468881e+02	(-4.30905403898490e+01dB,8.91007767089387e+01°)
1.13288388529580e+02	(-4.30303436442766e+01dB,8.90945228876403e+01°)
1.14076371586843e+02	(-4.29701470277926e+01dB,8.90882255837627e+01°)
1.14869835499704e+02	(-4.29099505421965e+01dB,8.90818844951999e+01°)
1.15668818390529e+02	(-4.28497541893130e+01dB,8.90754993177521e+01°)
1.16473358646846e+02	(-4.27895579709922e+01dB,8.90690697451107e+01°)
1.17283494923188e+02	(-4.27293618891097e+01dB,8.90625954688437e+01°)
1.18099266142953e+02	(-4.26691659455675e+01dB,8.90560761783818e+01°)
1.18920711500272e+02	(-4.26089701422939e+01dB,8.90495115610031e+01°)
1.19747870461893e+02	(-4.25487744812443e+01dB,8.90429013018182e+01°)
1.20580782769076e+02	(-4.24885789644009e+01dB,8.90362450837557e+01°)
1.21419488439505e+02	(-4.24283835937738e+01dB,8.90295425875472e+01°)
1.22264027769207e+02	(-4.23681883714010e+01dB,8.90227934917116e+01°)
1.23114441334492e+02	(-4.23079932993489e+01dB,8.90159974725405e+01°)
1.23970769993899e+02	(-4.22477983797125e+01dB,8.90091542040828e+01°)
1.24833054890161e+02	(-4.21876036146162e+01dB,8.90022633581289e+01°)
1.25701337452183e+02	(-4.21274090062136e+01dB,8.89953246041956e+01°)
1.26575659397028e+02	(-4.20672145566887e+01dB,8.89883376095102e+01°)
1.27456062731927e+02	(-4.20070202682556e+01dB,8.89813020389949e+01°)
1.28342589756291e+02	(-4.19468261431593e+01dB,8.89742175552511e+01°)
1.29235283063750e+02	(-4.18866321836760e+01dB,8.89670838185431e+01°)
1.30134185544194e+02	(-4.18264383921135e+01dB,8.89599004867823e+01°)
1.31039340385837e+02	(-4.17662447708119e+01dB,8.89526672155111e+01°)
1.31950791077290e+02	(-4.17060513221437e+01dB,8.89453836578865e+01°)
1.32868581409652e+02	(-4.16458580485143e+01dB,8.89380494646635e+01°)
1.33792755478612e+02	(-4.15856649523629e+01dB,8.89306642841794e+01°)
1.34723357686569e+02	(-4.15254720361623e+01dB,8.89232277623362e+01°)
1.35660432744768e+02	(-4.14652793024198e+01dB,8.89157395425846e+01°)
1.36604025675440e+02	(-4.14050867536776e+01dB,8.89081992659070e+01°)
1.37554181813975e+02	(-4.13448943925133e+01dB,8.89006065708006e+01°)
1.38510946811093e+02	(-4.12847022215401e+01dB,8.88929610932601e+01°)
1.39474366635041e+02	(-4.12245102434079e+01dB,8.88852624667609e+01°)
1.40444487573800e+02	(-4.11643184608030e+01dB,8.88775103222418e+01°)
1.41421356237310e+02	(-4.11041268764496e+01dB,8.88697042880872e+01°)
1.42405019559708e+02	(-4.10439354931092e+01dB,8.88618439901102e+01°)
1.43395524801583e+02	(-4.09837443135821e+01dB,8.88539290515348e+01°)
1.44392919552250e+02	(-4.09235533407074e+01dB,8.88459590929776e+01°)
1.45397251732032e+02	(-4.08633625773635e+01dB,8.88379337324310e+01°)
1.46408569594563e+02	(-4.08031720264691e+01dB,8.88298525852442e+01°)
1.47426921729111e+02	(-4.07429816909833e+01dB,8.88217152641060e+01°)
1.48452357062906e+02	(-4.06827915739063e+01dB,8.88135213790259e+01°)
1.49484924863494e+02	(-4.06226016782800e+01dB,8.88052705373161e+01°)
1.50524674741107e+02	(-4.05624120071887e+01dB,8.87969623435731e+01°)
1.51571656651040e+02	(-4.05022225637594e+01dB,8.87885963996590e+01°)
1.52625920896057e+02	(-4.04420333511626e+01dB,8.87801723046830e+01°)
1.53687518128802e+02	(-4.03818443726129e+01dB,8.87716896549822e+01°)
1.54756499354240e+02	(-4.03216556313694e+01dB,8.87631480441030e+01°)
1.55832915932101e+02	(-4.02614671307367e+01dB,8.87545470627823e+01°)
1.56916819579351e+02	(-4.02012788740652e+01dB,8.87458862989274e+01°)
1.58008262372676e+02	(-4.01410908647517e+01dB,8.87371653375977e+01°)
1.59107296750985e+02	(-4.00809031062404e+01dB,8.87283837609846e+01°)
1.60213975517925e+02	(-4.00207156020232e+01dB,8.87195411483924e+01°)
1.61328351844426e+02	(-3.99605283556405e+01dB,8.87106370762180e+01°)
1.62450479271248e+02	(-3.99003413706818e+01dB,8.87016711179318e+01°)
1.63580411711557e+02	(-3.98401546507867e+01dB,8.86926428440572e+01°)
1.64718203453516e+02	(-3.97799681996449e+01dB,8.86835518221508e+01°)
1.65863909162889e+02	(-3.97197820209978e+01dB,8.86743976167821e+01°)
1.67017583885675e+02	(-3.96595961186383e+01dB,8.86651797895129e+01°)
1.68179283050744e+02	(-3.95994104964122e+01dB,8.86558978988776e+01°)
1.69349062472506e+02	(-3.95392251582187e+01dB,8.86465515003615e+01°)
1.70526978353592e+02	(-3.94790401080109e+01dB,8.86371401463809e+01°)
1.71713087287552e+02	(-3.94188553497970e+01dB,8.86276633862620e+01°)
1.72907446261574e+02	(-3.93586708876407e+01dB,8.86181207662198e+01°)
1.74110112659226e+02	(-3.92984867256619e+01dB,8.86085118293367e+01°)
1.75321144263208e+02	(-3.92383028680381e+01dB,8.85988361155418e+01°)
1.76540599258132e+02	(-3.91781193190043e+01dB,8.85890931615890e+01°)
1.77768536233315e+02	(-3.91179360828544e+01dB,8.85792825010356e+01°)
1.79005014185596e+02	(-3.90577531639421e+01dB,8.85694036642207e+01°)
1.80250092522167e+02	(-3.89975705666810e+01dB,8.85594561782431e+01°)
1.81503831063433e+02	(-3.89373882955464e+01dB,8.85494395669394e+01°)
1.82766290045881e+02	(-3.88772063550753e+01dB,8.85393533508621e+01°)
1.84037530124976e+02	(-3.88170247498677e+01dB,8.85291970472571e+01°)
1.85317612378075e+02	(-3.87568434845874e+01dB,8.85189701700413e+01°)
1.86606598307363e+02	(-3.86966625639630e+01dB,8.85086722297800e+01°)
1.87904549842804e+02	(-3.86364819927882e+01dB,8.84983027336645e+01°)
1.89211529345120e+02	(-3.85763017759237e+01dB,8.84878611854889e+01°)
1.90527599608789e+02	(-3.85161219182971e+01dB,8.84773470856272e+01°)
1.91852823865054e+02	(-3.84559424249045e+01dB,8.84667599310103e+01°)
1.93187265784970e+02	(-3.83957633008112e+01dB,8.84560992151025e+01°)
1.94530989482458e+02	(-3.83355845511527e+01dB,8.84453644278784e+01°)
1.95884059517387e+02	(-3.82754061811354e+01dB,8.84345550557988e+01°)
1.97246540898673e+02	(-3.82152281960382e+01dB,8.84236705817875e+01°)
1.98618499087409e+02	(-3.81550506012129e+01dB,8.84127104852070e+01°)
2.00000000000002e+02	(-3.80948734020852e+01dB,8.84016742418348e+01°)
2.01391110011345e+02	(-3.80346966041564e+01dB,8.83905613238388e+01°)
2.02791895958007e+02	(-3.79745202130035e+01dB,8.83793711997536e+01°)
2.04202425141440e+02	(-3.79143442342810e+01dB,8.83681033344551e+01°)
2.05622765331215e+02	(-3.78541686737216e+01dB,8.83567571891367e+01°)
2.07052984768277e+02	(-3.77939935371372e+01dB,8.83453322212841e+01°)
2.08493152168226e+02	(-3.77338188304203e+01dB,8.83338278846504e+01°)
2.09943336724615e+02	(-3.76736445595449e+01dB,8.83222436292308e+01°)
2.11403608112278e+02	(-3.76134707305676e+01dB,8.83105789012376e+01°)
2.12874036490674e+02	(-3.75532973496287e+01dB,8.82988331430747e+01°)
2.14354692507260e+02	(-3.74931244229537e+01dB,8.82870057933119e+01°)
2.15845647300887e+02	(-3.74329519568538e+01dB,8.82750962866592e+01°)
2.17346972505213e+02	(-3.73727799577278e+01dB,8.82631040539410e+01°)
2.18858740252150e+02	(-3.73126084320629e+01dB,8.82510285220698e+01°)
2.20381023175324e+02	(-3.72524373864358e+01dB,8.82388691140200e+01°)
2.21913894413571e+02	(-3.71922668275144e+01dB,8.82266252488018e+01°)
2.23457427614446e+02	(-3.71320967620584e+01dB,8.82142963414342e+01°)
2.25011696937764e+02	(-3.70719271969213e+01dB,8.82018818029187e+01°)
2.26576777059162e+02	(-3.70117581390509e+01dB,8.81893810402120e+01°)
2.28152743173687e+02	(-3.69515895954914e+01dB,8.81767934561993e+01°)
2.29739670999409e+02	(-3.68914215733838e+01dB,8.81641184496667e+01°)
2.31337636781060e+02	(-3.68312540799682e+01dB,8.81513554152742e+01°)
2.32946717293693e+02	(-3.67710871225843e+01dB,8.81385037435280e+01°)
2.34566989846378e+02	(-3.67109207086735e+01dB,8.81255628207524e+01°)
2.36198532285908e+02	(-3.66507548457795e+01dB,8.81125320290627e+01°)
2.37841423000546e+02	(-3.65905895415505e+01dB,8.80994107463362e+01°)
2.39495740923788e+02	(-3.65304248037401e+01dB,8.80861983461847e+01°)
2.41161565538154e+02	(-3.64702606402087e+01dB,8.80728941979257e+01°)
2.42838976879012e+02	(-3.64100970589255e+01dB,8.80594976665541e+01°)
2.44528055538416e+02	(-3.63499340679693e+01dB,8.80460081127129e+01°)
2.46228882668986e+02	(-3.62897716755306e+01dB,8.80324248926651e+01°)
2.47941539987800e+02	(-3.62296098899125e+01dB,8.80187473582638e+01°)
2.49666109780325e+02	(-3.61694487195329e+01dB,8.80049748569233e+01°)
2.51402674904368e+02	(-3.61092881729256e+01dB,8.79911067315897e+01°)
2.53151318794059e+02	(-3.60491282587419e+01dB,8.79771423207113e+01°)
2.54912125463855e+02	(-3.59889689857526e+01dB,8.79630809582083e+01°)
2.56685179512583e+02	(-3.59288103628489e+01dB,8.79489219734434e+01°)
2.58470566127501e+02	(-3.58686523990449e+01dB,8.79346646911915e+01°)
2.60268371088389e+02	(-3.58084951034787e+01dB,8.79203084316091e+01°)
2.62078680771675e+02	(-3.57483384854141e+01dB,8.79058525102039e+01°)
2.63901582154582e+02	(-3.56881825542425e+01dB,8.78912962378045e+01°)
2.65737162819305e+02	(-3.56280273194847e+01dB,8.78766389205288e+01°)
2.67585510957225e+02	(-3.55678727907923e+01dB,8.78618798597533e+01°)
2.69446715373141e+02	(-3.55077189779499e+01dB,8.78470183520822e+01°)
2.71320865489537e+02	(-3.54475658908766e+01dB,8.78320536893152e+01°)
2.73208051350882e+02	(-3.53874135396280e+01dB,8.78169851584166e+01°)
2.75108363627952e+02	(-3.53272619343977e+01dB,8.78018120414830e+01°)
2.77021893622188e+02	(-3.52671110855198e+01dB,8.77865336157117e+01°)
2.78948733270084e+02	(-3.52069610034702e+01dB,8.77711491533682e+01°)
2.80888975147603e+02	(-3.51468116988690e+01dB,8.77556579217542e+01°)
2.82842712474622e+02	(-3.50866631824818e+01dB,8.77400591831748e+01°)
2.84810039119418e+02	(-3.50265154652226e+01dB,8.77243521949056e+01°)
2.86791049603169e+02	(-3.49663685581549e+01dB,8.77085362091604e+01°)
2.88785839104503e+02	(-3.49062224724942e+01dB,8.76926104730574e+01°)
2.90794503464065e+02	(-3.48460772196101e+01dB,8.76765742285865e+01°)
2.92817139189129e+02	(-3.47859328110280e+01dB,8.76604267125753e+01°)
2.94853843458224e+02	(-3.47257892584315e+01dB,8.76441671566560e+01°)
2.96904714125813e+02	(-3.46656465736646e+01dB,8.76277947872309e+01°)
2.98969849726991e+02	(-3.46055047687337e+01dB,8.76113088254389e+01°)
3.01049349482217e+02	(-3.45453638558097e+01dB,8.75947084871209e+01°)
3.03143313302083e+02	(-3.44852238472304e+01dB,8.75779929827857e+01°)
3.05251841792115e+02	(-3.44250847555028e+01dB,8.75611615175750e+01°)
3.07375036257606e+02	(-3.43649465933050e+01dB,8.75442132912287e+01°)
3.09512998708482e+02	(-3.43048093734889e+01dB,8.75271474980503e+01°)
3.11665831864204e+02	(-3.42446731090824e+01dB,8.75099633268710e+01°)
3.13833639158704e+02	(-3.41845378132918e+01dB,8.74926599610148e+01°)
3.16016524745355e+02	(-3.41244034995041e+01dB,8.74752365782628e+01°)
3.18214593501971e+02	(-3.40642701812894e+01dB,8.74576923508174e+01°)
3.20427951035853e+02	(-3.40041378724035e+01dB,8.74400264452663e+01°)
3.22656703688855e+02	(-3.39440065867903e+01dB,8.74222380225462e+01°)
3.24900958542498e+02	(-3.38838763385844e+01dB,8.74043262379067e+01°)
3.27160823423117e+02	(-3.38237471421135e+01dB,8.73862902408737e+01°)
3.29436406907034e+02	(-3.37636190119012e+01dB,8.73681291752123e+01°)
3.31727818325781e+02	(-3.37034919626692e+01dB,8.73498421788903e+01°)
3.34035167771352e+02	(-3.36433660093407e+01dB,8.73314283840407e+01°)
3.36358566101490e+02	(-3.35832411670421e+01dB,8.73128869169245e+01°)
3.38698124945015e+02	(-3.35231174511067e+01dB,8.72942168978932e+01°)
3.41053956707187e+02	(-3.34629948770768e+01dB,8.72754174413509e+01°)
3.43426174575106e+02	(-3.34028734607067e+01dB,8.72564876557165e+01°)
3.45814892523151e+02	(-3.33427532179655e+01dB,8.72374266433854e+01°)
3.48220225318454e+02	(-3.32826341650401e+01dB,8.72182335006915e+01°)
3.50642288526419e+02	(-3.32225163183377e+01dB,8.71989073178682e+01°)
3.53081198516267e+02	(-3.31623996944892e+01dB,8.71794471790099e+01°)
3.55537072466633e+02	(-3.31022843103521e+01dB,8.71598521620332e+01°)
3.58010028371194e+02	(-3.30421701830131e+01dB,8.71401213386376e+01°)
3.60500185044337e+02	(-3.29820573297916e+01dB,8.71202537742660e+01°)
3.63007662126869e+02	(-3.29219457682426e+01dB,8.71002485280656e+01°)
3.65532580091765e+02	(-3.28618355161598e+01dB,8.70801046528479e+01°)
3.68075060249955e+02	(-3.28017265915788e+01dB,8.70598211950487e+01°)
3.70635224756154e+02	(-3.27416190127803e+01dB,8.70393971946881e+01°)
3.73213196614728e+02	(-3.26815127982933e+01dB,8.70188316853302e+01°)
3.75809099685610e+02	(-3.26214079668985e+01dB,8.69981236940426e+01°)
3.78423058690244e+02	(-3.25613045376315e+01dB,8.69772722413555e+01°)
3.81055199217580e+02	(-3.25012025297863e+01dB,8.69562763412210e+01°)
3.83705647730111e+02	(-3.24411019629185e+01dB,8.69351350009717e+01°)
3.86374531569944e+02	(-3.23810028568488e+01dB,8.69138472212798e+01°)
3.89061978964920e+02	(-3.23209052316668e+01dB,8.68924119961150e+01°)
3.91768119034777e+02	(-3.22608091077341e+01dB,8.68708283127036e+01°)
3.94493081797350e+02	(-3.22007145056882e+01dB,8.68490951514856e+01°)
3.97236998174820e+02	(-3.21406214464457e+01dB,8.68272114860735e+01°)
4.00000000000006e+02	(-3.20805299512067e+01dB,8.68051762832093e+01°)
4.02782220022694e+02	(-3.20204400414578e+01dB,8.67829885027226e+01°)
4.05583791916018e+02	(-3.19603517389762e+01dB,8.67606470974873e+01°)
4.08404850282884e+02	(-3.19002650658333e+01dB,8.67381510133790e+01°)
4.11245530662433e+02	(-3.18401800443989e+01dB,8.67154991892321e+01°)
4.14105969536557e+02	(-3.17800966973448e+01dB,8.66926905567962e+01°)
4.16986304336455e+02	(-3.17200150476488e+01dB,8.66697240406926e+01°)
4.19886673449233e+02	(-3.16599351185986e+01dB,8.66465985583710e+01°)
4.22807216224559e+02	(-3.15998569337964e+01dB,8.66233130200650e+01°)
4.25748072981351e+02	(-3.15397805171620e+01dB,8.65998663287486e+01°)
4.28709385014524e+02	(-3.14797058929378e+01dB,8.65762573800918e+01°)
4.31691294601778e+02	(-3.14196330856928e+01dB,8.65524850624159e+01°)
4.34693945010430e+02	(-3.13595621203263e+01dB,8.65285482566490e+01°)
4.37717480504303e+02	(-3.12994930220732e+01dB,8.65044458362812e+01°)
4.40762046350651e+02	(-3.12394258165072e+01dB,8.64801766673195e+01°)
4.43827788827145e+02	(-3.11793605295461e+01dB,8.64557396082428e+01°)
4.46914855228895e+02	(-3.11192971874558e+01dB,8.64311335099559e+01°)
4.50023393875531e+02	(-3.10592358168549e+01dB,8.64063572157446e+01°)
4.53153554118327e+02	(-3.09991764447193e+01dB,8.63814095612293e+01°)
4.56305486347377e+02	(-3.09391190983869e+01dB,8.63562893743197e+01°)
4.59479341998822e+02	(-3.08790638055618e+01dB,8.63309954751678e+01°)
4.62675273562123e+02	(-3.08190105943196e+01dB,8.63055266761221e+01°)
4.65893434587390e+02	(-3.07589594931120e+01dB,8.62798817816809e+01°)
4.69133979692759e+02	(-3.06989105307714e+01dB,8.62540595884456e+01°)
4.72397064571820e+02	(-3.06388637365159e+01dB,8.62280588850738e+01°)
4.75682846001096e+02	(-3.05788191399545e+01dB,8.62018784522322e+01°)
4.78991481847580e+02	(-3.05187767710918e+01dB,8.61755170625489e+01°)
4.82323131076312e+02	(-3.04587366603332e+01dB,8.61489734805669e+01°)
4.85677953758027e+02	(-3.03986988384898e+01dB,8.61222464626953e+01°)
4.89056111076836e+02	(-3.03386633367841e+01dB,8.60953347571625e+01°)
4.92457765337975e+02	(-3.02786301868546e+01dB,8.60682371039674e+01°)
4.95883079975603e+02	(-3.02185994207617e+01dB,8.60409522348318e+01°)
4.99332219560653e+02	(-3.01585710709924e+01dB,8.60134788731516e+01°)
5.02805349808740e+02	(-3.00985451704664e+01dB,8.59858157339485e+01°)
5.06302637588121e+02	(-3.00385217525412e+01dB,8.59579615238213e+01°)
5.09824250927714e+02	(-2.99785008510178e+01dB,8.59299149408970e+01°)
5.13370359025171e+02	(-2.99184825001460e+01dB,8.59016746747817e+01°)
5.16941132255006e+02	(-2.98584667346307e+01dB,8.58732394065112e+01°)
5.20536742176783e+02	(-2.97984535896369e+01dB,8.58446078085020e+01°)
5.24157361543355e+02	(-2.97384431007961e+01dB,8.58157785445015e+01°)
5.27803164309167e+02	(-2.96784353042120e+01dB,8.57867502695383e+01°)
5.31474325638614e+02	(-2.96184302364662e+01dB,8.57575216298721e+01°)
5.35171021914455e+02	(-2.95584279346245e+01dB,8.57280912629440e+01°)
5.38893430746286e+02	(-2.94984284362428e+01dB,8.56984577973262e+01°)
5.42641730979079e+02	(-2.94384317793735e+01dB,8.56686198526714e+01°)
5.46416102701768e+02	(-2.93784380025714e+01dB,8.56385760396623e+01°)
5.50216727255908e+02	(-2.93184471449001e+01dB,8.56083249599610e+01°)
5.54043787244380e+02	(-2.92584592459383e+01dB,8.55778652061583e+01°)
5.57897466540173e+02	(-2.91984743457864e+01dB,8.55471953617223e+01°)
5.61777950295209e+02	(-2.91384924850728e+01dB,8.55163140009474e+01°)
5.65685424949249e+02	(-2.90785137049606e+01dB,8.54852196889031e+01°)
5.69620078238839e+02	(-2.90185380471542e+01dB,8.54539109813822e+01°)
5.73582099206342e+02	(-2.89585655539057e+01dB,8.54223864248495e+01°)
5.77571678209009e+02	(-2.88985962680224e+01dB,8.53906445563899e+01°)
5.81589006928135e+02	(-2.88386302328729e+01dB,8.53586839036565e+01°)
5.85634278378261e+02	(-2.87786674923944e+01dB,8.53265029848183e+01°)
5.89707686916452e+02	(-2.87187080910998e+01dB,8.52941003085085e+01°)
5.93809428251631e+02	(-2.86587520740844e+01dB,8.52614743737714e+01°)
5.97939699453987e+02	(-2.85987994870335e+01dB,8.52286236700106e+01°)
6.02098698964439e+02	(-2.85388503762293e+01dB,8.51955466769361e+01°)
6.06286626604171e+02	(-2.84789047885584e+01dB,8.51622418645114e+01°)
6.10503683584236e+02	(-2.84189627715192e+01dB,8.51287076929008e+01°)
6.14750072515217e+02	(-2.83590243732291e+01dB,8.50949426124161e+01°)
6.19025997416968e+02	(-2.82990896424325e+01dB,8.50609450634638e+01°)
6.23331663728412e+02	(-2.82391586285079e+01dB,8.50267134764913e+01°)
6.27667278317413e+02	(-2.81792313814762e+01dB,8.49922462719341e+01°)
6.32033049490714e+02	(-2.81193079520079e+01dB,8.49575418601615e+01°)
6.36429187003948e+02	(-2.80593883914314e+01dB,8.49225986414236e+01°)
6.40855902071711e+02	(-2.79994727517407e+01dB,8.48874150057970e+01°)
6.45313407377714e+02	(-2.79395610856036e+01dB,8.48519893331312e+01°)
6.49801917085002e+02	(-2.78796534463698e+01dB,8.48163199929942e+01°)
6.54321646846238e+02	(-2.78197498880791e+01dB,8.47804053446186e+01°)
6.58872813814072e+02	(-2.77598504654694e+01dB,8.47442437368475e+01°)
6.63455636651567e+02	(-2.76999552339856e+01dB,8.47078335080793e+01°)
6.68070335542709e+02	(-2.76400642497877e+01dB,8.46711729862142e+01°)
6.72717132202986e+02	(-2.75801775697594e+01dB,8.46342604885988e+01°)
6.77396249890036e+02	(-2.75202952515169e+01dB,8.45970943219717e+01°)
6.82107913414380e+02	(-2.74604173534172e+01dB,8.45596727824087e+01°)
6.86852349150217e+02	(-2.74005439345676e+01dB,8.45219941552676e+01°)
6.91629785046307e+02	(-2.73406750548339e+01dB,8.44840567151333e+01°)
6.96440450636914e+02	(-2.72808107748498e+01dB,8.44458587257627e+01°)
7.01284577052843e+02	(-2.72209511560260e+01dB,8.44073984400292e+01°)
7.06162397032539e+02	(-2.71610962605591e+01dB,8.43686740998676e+01°)
7.11074144933271e+02	(-2.71012461514409e+01dB,8.43296839362183e+01°)
7.16020056742393e+02	(-2.70414008924682e+01dB,8.42904261689721e+01°)
7.21000370088680e+02	(-2.69815605482516e+01dB,8.42508990069143e+01°)
7.26015324253744e+02	(-2.69217251842255e+01dB,8.42111006476692e+01°)
7.31065160183536e+02	(-2.68618948666576e+01dB,8.41710292776436e+01°)
7.36150120499916e+02	(-2.68020696626586e+01dB,8.41306830719717e+01°)
