Freq.	V(n008)*10
1.00000000000000e+01	(1.35394773980182e+01dB,1.79999553021158e+02°)
1.00770481413610e+01	(1.35394773989700e+01dB,1.79999549577249e+02°)
1.01546899243308e+01	(1.35394773999365e+01dB,1.79999546106805e+02°)
1.02329299228075e+01	(1.35394774009179e+01dB,1.79999542609621e+02°)
1.03117727459306e+01	(1.35394774019146e+01dB,1.79999539085492e+02°)
1.03912230383517e+01	(1.35394774029267e+01dB,1.79999535534209e+02°)
1.04712854805090e+01	(1.35394774039544e+01dB,1.79999531955564e+02°)
1.05519647889024e+01	(1.35394774049980e+01dB,1.79999528349346e+02°)
1.06332657163716e+01	(1.35394774060577e+01dB,1.79999524715342e+02°)
1.07151930523761e+01	(1.35394774071339e+01dB,1.79999521053338e+02°)
1.07977516232771e+01	(1.35394774082267e+01dB,1.79999517363119e+02°)
1.08809462926223e+01	(1.35394774093364e+01dB,1.79999513644466e+02°)
1.09647819614319e+01	(1.35394774104633e+01dB,1.79999509897161e+02°)
1.10492635684876e+01	(1.35394774116076e+01dB,1.79999506120984e+02°)
1.11343960906236e+01	(1.35394774127695e+01dB,1.79999502315711e+02°)
1.12201845430196e+01	(1.35394774139495e+01dB,1.79999498481118e+02°)
1.13066339794964e+01	(1.35394774151477e+01dB,1.79999494616980e+02°)
1.13937494928134e+01	(1.35394774163645e+01dB,1.79999490723069e+02°)
1.14815362149688e+01	(1.35394774176001e+01dB,1.79999486799156e+02°)
1.15699993175021e+01	(1.35394774188548e+01dB,1.79999482845008e+02°)
1.16591440117983e+01	(1.35394774201289e+01dB,1.79999478860394e+02°)
1.17489755493953e+01	(1.35394774214227e+01dB,1.79999474845079e+02°)
1.18394992222930e+01	(1.35394774227365e+01dB,1.79999470798825e+02°)
1.19307203632654e+01	(1.35394774240707e+01dB,1.79999466721396e+02°)
1.20226443461741e+01	(1.35394774254254e+01dB,1.79999462612549e+02°)
1.21152765862859e+01	(1.35394774268012e+01dB,1.79999458472044e+02°)
1.22086225405907e+01	(1.35394774281982e+01dB,1.79999454299636e+02°)
1.23026877081238e+01	(1.35394774296168e+01dB,1.79999450095080e+02°)
1.23974776302895e+01	(1.35394774310574e+01dB,1.79999445858128e+02°)
1.24929978911874e+01	(1.35394774325203e+01dB,1.79999441588530e+02°)
1.25892541179417e+01	(1.35394774340058e+01dB,1.79999437286034e+02°)
1.26862519810326e+01	(1.35394774355142e+01dB,1.79999432950388e+02°)
1.27839971946303e+01	(1.35394774370460e+01dB,1.79999428581335e+02°)
1.28824955169314e+01	(1.35394774386015e+01dB,1.79999424178619e+02°)
1.29817527504985e+01	(1.35394774401811e+01dB,1.79999419741980e+02°)
1.30817747426020e+01	(1.35394774417851e+01dB,1.79999415271156e+02°)
1.31825673855641e+01	(1.35394774434139e+01dB,1.79999410765884e+02°)
1.32841366171065e+01	(1.35394774450679e+01dB,1.79999406225899e+02°)
1.33864884207000e+01	(1.35394774467474e+01dB,1.79999401650933e+02°)
1.34896288259166e+01	(1.35394774484530e+01dB,1.79999397040717e+02°)
1.35935639087853e+01	(1.35394774501849e+01dB,1.79999392394979e+02°)
1.36982997921497e+01	(1.35394774519437e+01dB,1.79999387713445e+02°)
1.38038426460289e+01	(1.35394774537296e+01dB,1.79999382995839e+02°)
1.39101986879806e+01	(1.35394774555432e+01dB,1.79999378241884e+02°)
1.40173741834677e+01	(1.35394774573848e+01dB,1.79999373451300e+02°)
1.41253754462276e+01	(1.35394774592549e+01dB,1.79999368623804e+02°)
1.42342088386435e+01	(1.35394774611539e+01dB,1.79999363759111e+02°)
1.43438807721197e+01	(1.35394774630823e+01dB,1.79999358856936e+02°)
1.44543977074593e+01	(1.35394774650406e+01dB,1.79999353916989e+02°)
1.45657661552446e+01	(1.35394774670291e+01dB,1.79999348938979e+02°)
1.46779926762207e+01	(1.35394774690484e+01dB,1.79999343922613e+02°)
1.47910838816821e+01	(1.35394774710989e+01dB,1.79999338867596e+02°)
1.49050464338620e+01	(1.35394774731811e+01dB,1.79999333773629e+02°)
1.50198870463249e+01	(1.35394774752956e+01dB,1.79999328640413e+02°)
1.51356124843621e+01	(1.35394774774427e+01dB,1.79999323467644e+02°)
1.52522295653902e+01	(1.35394774796231e+01dB,1.79999318255019e+02°)
1.53697451593528e+01	(1.35394774818372e+01dB,1.79999313002230e+02°)
1.54881661891249e+01	(1.35394774840855e+01dB,1.79999307708967e+02°)
1.56074996309212e+01	(1.35394774863686e+01dB,1.79999302374919e+02°)
1.57277525147067e+01	(1.35394774886871e+01dB,1.79999296999772e+02°)
1.58489319246112e+01	(1.35394774910414e+01dB,1.79999291583208e+02°)
1.59710449993461e+01	(1.35394774934321e+01dB,1.79999286124909e+02°)
1.60940989326254e+01	(1.35394774958598e+01dB,1.79999280624553e+02°)
1.62181009735894e+01	(1.35394774983250e+01dB,1.79999275081815e+02°)
1.63430584272314e+01	(1.35394775008284e+01dB,1.79999269496370e+02°)
1.64689786548288e+01	(1.35394775033705e+01dB,1.79999263867889e+02°)
1.65958690743757e+01	(1.35394775059519e+01dB,1.79999258196038e+02°)
1.67237371610209e+01	(1.35394775085733e+01dB,1.79999252480486e+02°)
1.68525904475076e+01	(1.35394775112352e+01dB,1.79999246720893e+02°)
1.69824365246175e+01	(1.35394775139383e+01dB,1.79999240916922e+02°)
1.71132830416179e+01	(1.35394775166831e+01dB,1.79999235068230e+02°)
1.72451377067121e+01	(1.35394775194705e+01dB,1.79999229174473e+02°)
1.73780082874938e+01	(1.35394775223009e+01dB,1.79999223235304e+02°)
1.75119026114047e+01	(1.35394775251752e+01dB,1.79999217250371e+02°)
1.76468285661951e+01	(1.35394775280939e+01dB,1.79999211219324e+02°)
1.77827941003893e+01	(1.35394775310577e+01dB,1.79999205141806e+02°)
1.79198072237534e+01	(1.35394775340674e+01dB,1.79999199017459e+02°)
1.80578760077673e+01	(1.35394775371237e+01dB,1.79999192845922e+02°)
1.81970085860999e+01	(1.35394775402272e+01dB,1.79999186626833e+02°)
1.83372131550889e+01	(1.35394775433787e+01dB,1.79999180359823e+02°)
1.84784979742230e+01	(1.35394775465790e+01dB,1.79999174044525e+02°)
1.86208713666288e+01	(1.35394775498287e+01dB,1.79999167680566e+02°)
1.87643417195610e+01	(1.35394775531288e+01dB,1.79999161267570e+02°)
1.89089174848965e+01	(1.35394775564799e+01dB,1.79999154805161e+02°)
1.90546071796326e+01	(1.35394775598828e+01dB,1.79999148292957e+02°)
1.92014193863881e+01	(1.35394775633383e+01dB,1.79999141730574e+02°)
1.93493627539096e+01	(1.35394775668473e+01dB,1.79999135117627e+02°)
1.94984459975806e+01	(1.35394775704106e+01dB,1.79999128453724e+02°)
1.96486778999348e+01	(1.35394775740290e+01dB,1.79999121738474e+02°)
1.98000673111740e+01	(1.35394775777034e+01dB,1.79999114971481e+02°)
1.99526231496889e+01	(1.35394775814346e+01dB,1.79999108152346e+02°)
2.01063544025850e+01	(1.35394775852235e+01dB,1.79999101280667e+02°)
2.02612701262116e+01	(1.35394775890710e+01dB,1.79999094356039e+02°)
2.04173794466954e+01	(1.35394775929780e+01dB,1.79999087378055e+02°)
2.05746915604785e+01	(1.35394775969455e+01dB,1.79999080346303e+02°)
2.07332157348597e+01	(1.35394776009743e+01dB,1.79999073260368e+02°)
2.08929613085405e+01	(1.35394776050655e+01dB,1.79999066119834e+02°)
2.10539376921756e+01	(1.35394776092199e+01dB,1.79999058924279e+02°)
2.12161543689270e+01	(1.35394776134386e+01dB,1.79999051673279e+02°)
2.13796208950225e+01	(1.35394776177225e+01dB,1.79999044366407e+02°)
2.15443469003190e+01	(1.35394776220727e+01dB,1.79999037003233e+02°)
2.17103420888697e+01	(1.35394776264902e+01dB,1.79999029583322e+02°)
2.18776162394957e+01	(1.35394776309761e+01dB,1.79999022106238e+02°)
2.20461792063620e+01	(1.35394776355313e+01dB,1.79999014571539e+02°)
2.22160409195583e+01	(1.35394776401569e+01dB,1.79999006978782e+02°)
2.23872113856835e+01	(1.35394776448541e+01dB,1.79998999327520e+02°)
2.25597006884359e+01	(1.35394776496240e+01dB,1.79998991617300e+02°)
2.27335189892065e+01	(1.35394776544676e+01dB,1.79998983847670e+02°)
2.29086765276779e+01	(1.35394776593862e+01dB,1.79998976018171e+02°)
2.30851836224278e+01	(1.35394776643808e+01dB,1.79998968128341e+02°)
2.32630506715364e+01	(1.35394776694527e+01dB,1.79998960177716e+02°)
2.34422881531994e+01	(1.35394776746030e+01dB,1.79998952165828e+02°)
2.36229066263448e+01	(1.35394776798330e+01dB,1.79998944092203e+02°)
2.38049167312553e+01	(1.35394776851439e+01dB,1.79998935956367e+02°)
2.39883291901951e+01	(1.35394776905370e+01dB,1.79998927757839e+02°)
2.41731548080412e+01	(1.35394776960134e+01dB,1.79998919496137e+02°)
2.43594044729205e+01	(1.35394777015746e+01dB,1.79998911170774e+02°)
2.45470891568505e+01	(1.35394777072217e+01dB,1.79998902781258e+02°)
2.47362199163864e+01	(1.35394777129563e+01dB,1.79998894327097e+02°)
2.49268078932720e+01	(1.35394777187795e+01dB,1.79998885807791e+02°)
2.51188643150960e+01	(1.35394777246928e+01dB,1.79998877222838e+02°)
2.53124004959538e+01	(1.35394777306975e+01dB,1.79998868571732e+02°)
2.55074278371138e+01	(1.35394777367951e+01dB,1.79998859853964e+02°)
2.57039578276888e+01	(1.35394777429870e+01dB,1.79998851069019e+02°)
2.59020020453134e+01	(1.35394777492747e+01dB,1.79998842216381e+02°)
2.61015721568256e+01	(1.35394777556597e+01dB,1.79998833295527e+02°)
2.63026799189540e+01	(1.35394777621434e+01dB,1.79998824305931e+02°)
2.65053371790110e+01	(1.35394777687274e+01dB,1.79998815247063e+02°)
2.67095558755901e+01	(1.35394777754132e+01dB,1.79998806118391e+02°)
2.69153480392694e+01	(1.35394777822025e+01dB,1.79998796919374e+02°)
2.71227257933205e+01	(1.35394777890967e+01dB,1.79998787649473e+02°)
2.73317013544226e+01	(1.35394777960976e+01dB,1.79998778308139e+02°)
2.75422870333819e+01	(1.35394778032067e+01dB,1.79998768894823e+02°)
2.77544952358573e+01	(1.35394778104258e+01dB,1.79998759408970e+02°)
2.79683384630910e+01	(1.35394778177566e+01dB,1.79998749850020e+02°)
2.81838293126448e+01	(1.35394778252007e+01dB,1.79998740217410e+02°)
2.84009804791424e+01	(1.35394778327600e+01dB,1.79998730510572e+02°)
2.86198047550173e+01	(1.35394778404362e+01dB,1.79998720728935e+02°)
2.88403150312663e+01	(1.35394778482311e+01dB,1.79998710871922e+02°)
2.90625242982089e+01	(1.35394778561466e+01dB,1.79998700938951e+02°)
2.92864456462526e+01	(1.35394778641845e+01dB,1.79998690929437e+02°)
2.95120922666641e+01	(1.35394778723467e+01dB,1.79998680842791e+02°)
2.97394774523463e+01	(1.35394778806352e+01dB,1.79998670678417e+02°)
2.99686145986215e+01	(1.35394778890518e+01dB,1.79998660435716e+02°)
3.01995172040204e+01	(1.35394778975986e+01dB,1.79998650114085e+02°)
3.04321988710775e+01	(1.35394779062776e+01dB,1.79998639712916e+02°)
3.06666733071321e+01	(1.35394779150909e+01dB,1.79998629231594e+02°)
3.09029543251362e+01	(1.35394779240404e+01dB,1.79998618669503e+02°)
3.11410558444679e+01	(1.35394779331284e+01dB,1.79998608026019e+02°)
3.13809918917516e+01	(1.35394779423569e+01dB,1.79998597300516e+02°)
3.16227766016841e+01	(1.35394779517281e+01dB,1.79998586492361e+02°)
3.18664242178676e+01	(1.35394779612443e+01dB,1.79998575600916e+02°)
3.21119490936485e+01	(1.35394779709076e+01dB,1.79998564625540e+02°)
3.23593656929631e+01	(1.35394779807204e+01dB,1.79998553565586e+02°)
3.26086885911897e+01	(1.35394779906850e+01dB,1.79998542420402e+02°)
3.28599324760069e+01	(1.35394780008037e+01dB,1.79998531189330e+02°)
3.31131121482594e+01	(1.35394780110789e+01dB,1.79998519871709e+02°)
3.33682425228298e+01	(1.35394780215129e+01dB,1.79998508466871e+02°)
3.36253386295166e+01	(1.35394780321084e+01dB,1.79998496974144e+02°)
3.38844156139206e+01	(1.35394780428677e+01dB,1.79998485392851e+02°)
3.41454887383364e+01	(1.35394780537934e+01dB,1.79998473722308e+02°)
3.44085733826517e+01	(1.35394780648881e+01dB,1.79998461961828e+02°)
3.46736850452535e+01	(1.35394780761543e+01dB,1.79998450110717e+02°)
3.49408393439410e+01	(1.35394780875948e+01dB,1.79998438168276e+02°)
3.52100520168456e+01	(1.35394780992123e+01dB,1.79998426133802e+02°)
3.54813389233579e+01	(1.35394781110093e+01dB,1.79998414006584e+02°)
3.57547160450625e+01	(1.35394781229889e+01dB,1.79998401785909e+02°)
3.60301994866789e+01	(1.35394781351537e+01dB,1.79998389471054e+02°)
3.63078054770105e+01	(1.35394781475066e+01dB,1.79998377061295e+02°)
3.65875503699007e+01	(1.35394781600506e+01dB,1.79998364555899e+02°)
3.68694506451962e+01	(1.35394781727885e+01dB,1.79998351954129e+02°)
3.71535229097177e+01	(1.35394781857235e+01dB,1.79998339255242e+02°)
3.74397838982385e+01	(1.35394781988585e+01dB,1.79998326458489e+02°)
3.77282504744704e+01	(1.35394782121966e+01dB,1.79998313563116e+02°)
3.80189396320565e+01	(1.35394782257409e+01dB,1.79998300568362e+02°)
3.83118684955733e+01	(1.35394782394948e+01dB,1.79998287473460e+02°)
3.86070543215386e+01	(1.35394782534613e+01dB,1.79998274277640e+02°)
3.89045144994285e+01	(1.35394782676438e+01dB,1.79998260980122e+02°)
3.92042665527020e+01	(1.35394782820456e+01dB,1.79998247580122e+02°)
3.95063281398328e+01	(1.35394782966702e+01dB,1.79998234076850e+02°)
3.98107170553502e+01	(1.35394783115209e+01dB,1.79998220469511e+02°)
4.01174512308867e+01	(1.35394783266013e+01dB,1.79998206757300e+02°)
4.04265487362349e+01	(1.35394783419148e+01dB,1.79998192939410e+02°)
4.07380277804118e+01	(1.35394783574652e+01dB,1.79998179015026e+02°)
4.10519067127313e+01	(1.35394783732560e+01dB,1.79998164983327e+02°)
4.13682040238856e+01	(1.35394783892911e+01dB,1.79998150843484e+02°)
4.16869383470340e+01	(1.35394784055740e+01dB,1.79998136594665e+02°)
4.20081284589012e+01	(1.35394784221088e+01dB,1.79998122236028e+02°)
4.23317932808826e+01	(1.35394784388993e+01dB,1.79998107766726e+02°)
4.26579518801598e+01	(1.35394784559494e+01dB,1.79998093185907e+02°)
4.29866234708233e+01	(1.35394784732631e+01dB,1.79998078492711e+02°)
4.33178274150047e+01	(1.35394784908446e+01dB,1.79998063686270e+02°)
4.36515832240171e+01	(1.35394785086980e+01dB,1.79998048765711e+02°)
4.39879105595049e+01	(1.35394785268274e+01dB,1.79998033730154e+02°)
4.43268292346014e+01	(1.35394785452371e+01dB,1.79998018578712e+02°)
4.46683592150969e+01	(1.35394785639316e+01dB,1.79998003310492e+02°)
4.50125206206139e+01	(1.35394785829151e+01dB,1.79997987924593e+02°)
4.53593337257933e+01	(1.35394786021921e+01dB,1.79997972420106e+02°)
4.57088189614881e+01	(1.35394786217672e+01dB,1.79997956796118e+02°)
4.60609969159672e+01	(1.35394786416450e+01dB,1.79997941051707e+02°)
4.64158883361284e+01	(1.35394786618301e+01dB,1.79997925185944e+02°)
4.67735141287204e+01	(1.35394786823274e+01dB,1.79997909197892e+02°)
4.71338953615747e+01	(1.35394787031415e+01dB,1.79997893086610e+02°)
4.74970532648462e+01	(1.35394787242776e+01dB,1.79997876851145e+02°)
4.78630092322645e+01	(1.35394787457404e+01dB,1.79997860490540e+02°)
4.82317848223937e+01	(1.35394787675351e+01dB,1.79997844003830e+02°)
4.86034017599028e+01	(1.35394787896667e+01dB,1.79997827390042e+02°)
4.89778819368453e+01	(1.35394788121406e+01dB,1.79997810648196e+02°)
4.93552474139487e+01	(1.35394788349619e+01dB,1.79997793777304e+02°)
4.97355204219146e+01	(1.35394788581361e+01dB,1.79997776776370e+02°)
5.01187233627279e+01	(1.35394788816686e+01dB,1.79997759644391e+02°)
5.05048788109765e+01	(1.35394789055649e+01dB,1.79997742380356e+02°)
5.08940095151816e+01	(1.35394789298307e+01dB,1.79997724983247e+02°)
5.12861383991372e+01	(1.35394789544717e+01dB,1.79997707452037e+02°)
5.16812885632611e+01	(1.35394789794936e+01dB,1.79997689785690e+02°)
5.20794832859554e+01	(1.35394790049024e+01dB,1.79997671983165e+02°)
5.24807460249780e+01	(1.35394790307040e+01dB,1.79997654043410e+02°)
5.28851004188245e+01	(1.35394790569046e+01dB,1.79997635965368e+02°)
5.32925702881208e+01	(1.35394790835102e+01dB,1.79997617747970e+02°)
5.37031796370260e+01	(1.35394791105271e+01dB,1.79997599390142e+02°)
5.41169526546471e+01	(1.35394791379618e+01dB,1.79997580890801e+02°)
5.45339137164635e+01	(1.35394791658205e+01dB,1.79997562248853e+02°)
5.49540873857632e+01	(1.35394791941100e+01dB,1.79997543463199e+02°)
5.53774984150898e+01	(1.35394792228368e+01dB,1.79997524532729e+02°)
5.58041717477005e+01	(1.35394792520077e+01dB,1.79997505456327e+02°)
5.62341325190357e+01	(1.35394792816295e+01dB,1.79997486232866e+02°)
5.66674060582000e+01	(1.35394793117093e+01dB,1.79997466861211e+02°)
5.71040178894535e+01	(1.35394793422541e+01dB,1.79997447340218e+02°)
5.75439937337165e+01	(1.35394793732711e+01dB,1.79997427668735e+02°)
5.79873595100840e+01	(1.35394794047676e+01dB,1.79997407845601e+02°)
5.84341413373526e+01	(1.35394794367509e+01dB,1.79997387869644e+02°)
5.88843655355598e+01	(1.35394794692287e+01dB,1.79997367739686e+02°)
5.93380586275337e+01	(1.35394795022085e+01dB,1.79997347454538e+02°)
5.97952473404561e+01	(1.35394795356982e+01dB,1.79997327013002e+02°)
6.02559586074367e+01	(1.35394795697055e+01dB,1.79997306413870e+02°)
6.07202195690998e+01	(1.35394796042385e+01dB,1.79997285655927e+02°)
6.11880575751831e+01	(1.35394796393053e+01dB,1.79997264737946e+02°)
6.16595001861492e+01	(1.35394796749141e+01dB,1.79997243658692e+02°)
6.21345751748085e+01	(1.35394797110733e+01dB,1.79997222416920e+02°)
6.26133105279562e+01	(1.35394797477915e+01dB,1.79997201011375e+02°)
6.30957344480203e+01	(1.35394797850772e+01dB,1.79997179440793e+02°)
6.35818753547233e+01	(1.35394798229392e+01dB,1.79997157703900e+02°)
6.40717618867564e+01	(1.35394798613865e+01dB,1.79997135799411e+02°)
6.45654229034666e+01	(1.35394799004279e+01dB,1.79997113726033e+02°)
6.50628874865567e+01	(1.35394799400729e+01dB,1.79997091482462e+02°)
6.55641849417989e+01	(1.35394799803305e+01dB,1.79997069067383e+02°)
6.60693448007606e+01	(1.35394800212104e+01dB,1.79997046479472e+02°)
6.65783968225447e+01	(1.35394800627221e+01dB,1.79997023717395e+02°)
6.70913709955422e+01	(1.35394801048754e+01dB,1.79997000779806e+02°)
6.76082975391993e+01	(1.35394801476801e+01dB,1.79996977665351e+02°)
6.81292069057972e+01	(1.35394801911464e+01dB,1.79996954372663e+02°)
6.86541297822466e+01	(1.35394802352845e+01dB,1.79996930900365e+02°)
6.91830970918948e+01	(1.35394802801047e+01dB,1.79996907247071e+02°)
6.97161399963479e+01	(1.35394803256175e+01dB,1.79996883411383e+02°)
7.02532898973064e+01	(1.35394803718337e+01dB,1.79996859391891e+02°)
7.07945784384150e+01	(1.35394804187641e+01dB,1.79996835187177e+02°)
7.13400375071268e+01	(1.35394804664198e+01dB,1.79996810795809e+02°)
7.18896992365819e+01	(1.35394805148118e+01dB,1.79996786216345e+02°)
7.24435960075002e+01	(1.35394805639517e+01dB,1.79996761447332e+02°)
7.30017604500890e+01	(1.35394806138510e+01dB,1.79996736487307e+02°)
7.35642254459654e+01	(1.35394806645213e+01dB,1.79996711334792e+02°)
7.41310241300930e+01	(1.35394807159746e+01dB,1.79996685988302e+02°)
7.47021898927344e+01	(1.35394807682229e+01dB,1.79996660446337e+02°)
7.52777563814179e+01	(1.35394808212786e+01dB,1.79996634707386e+02°)
7.58577575029197e+01	(1.35394808751540e+01dB,1.79996608769929e+02°)
7.64422274252613e+01	(1.35394809298619e+01dB,1.79996582632430e+02°)
7.70312005797228e+01	(1.35394809854151e+01dB,1.79996556293345e+02°)
7.76247116628705e+01	(1.35394810418266e+01dB,1.79996529751114e+02°)
7.82227956386016e+01	(1.35394810991097e+01dB,1.79996503004168e+02°)
7.88254877402035e+01	(1.35394811572778e+01dB,1.79996476050925e+02°)
7.94328234724295e+01	(1.35394812163446e+01dB,1.79996448889790e+02°)
8.00448386135906e+01	(1.35394812763240e+01dB,1.79996421519157e+02°)
8.06615692176628e+01	(1.35394813372300e+01dB,1.79996393937405e+02°)
8.12830516164114e+01	(1.35394813990769e+01dB,1.79996366142904e+02°)
8.19093224215312e+01	(1.35394814618793e+01dB,1.79996338134007e+02°)
8.25404185268033e+01	(1.35394815256518e+01dB,1.79996309909058e+02°)
8.31763771102686e+01	(1.35394815904096e+01dB,1.79996281466386e+02°)
8.38172356364177e+01	(1.35394816561676e+01dB,1.79996252804308e+02°)
8.44630318583984e+01	(1.35394817229415e+01dB,1.79996223921127e+02°)
8.51138038202392e+01	(1.35394817907468e+01dB,1.79996194815133e+02°)
8.57695898590910e+01	(1.35394818595995e+01dB,1.79996165484604e+02°)
8.64304286074852e+01	(1.35394819295157e+01dB,1.79996135927802e+02°)
8.70963589956096e+01	(1.35394820005118e+01dB,1.79996106142978e+02°)
8.77674202536022e+01	(1.35394820726044e+01dB,1.79996076128368e+02°)
8.84436519138616e+01	(1.35394821458106e+01dB,1.79996045882195e+02°)
8.91250938133762e+01	(1.35394822201474e+01dB,1.79996015402668e+02°)
8.98117860960711e+01	(1.35394822956324e+01dB,1.79995984687980e+02°)
9.05037692151729e+01	(1.35394823722831e+01dB,1.79995953736314e+02°)
9.12010839355927e+01	(1.35394824501175e+01dB,1.79995922545834e+02°)
9.19037713363277e+01	(1.35394825291540e+01dB,1.79995891114694e+02°)
9.26118728128811e+01	(1.35394826094111e+01dB,1.79995859441032e+02°)
9.33254300797009e+01	(1.35394826909075e+01dB,1.79995827522970e+02°)
9.40444851726369e+01	(1.35394827736624e+01dB,1.79995795358617e+02°)
