Freq.	V(n036)*10
1.00000000000000e+02	(-4.39870995451710e+01dB,8.92006459330833e+01°)
1.00695555005672e+02	(-4.39269008566288e+01dB,8.91950865275420e+01°)
1.01395947979003e+02	(-4.38667022700847e+01dB,8.91894884646485e+01°)
1.02101212570719e+02	(-4.38065037869608e+01dB,8.91838514757583e+01°)
1.02811382665607e+02	(-4.37463054086995e+01dB,8.91781752903630e+01°)
1.03526492384138e+02	(-4.36861071367628e+01dB,8.91724596360782e+01°)
1.04246576084112e+02	(-4.36259089726334e+01dB,8.91667042386298e+01°)
1.04971668362307e+02	(-4.35657109178145e+01dB,8.91609088218416e+01°)
1.05701804056138e+02	(-4.35055129738302e+01dB,8.91550731076215e+01°)
1.06437018245336e+02	(-4.34453151422261e+01dB,8.91491968159490e+01°)
1.07177346253629e+02	(-4.33851174245690e+01dB,8.91432796648614e+01°)
1.07922823650443e+02	(-4.33249198224477e+01dB,8.91373213704407e+01°)
1.08673486252606e+02	(-4.32647223374729e+01dB,8.91313216467997e+01°)
1.09429370126074e+02	(-4.32045249712782e+01dB,8.91252802060690e+01°)
1.10190511587661e+02	(-4.31443277255194e+01dB,8.91191967583831e+01°)
1.10956947206785e+02	(-4.30841306018757e+01dB,8.91130710118663e+01°)
1.11728713807222e+02	(-4.30239336020496e+01dB,8.91069026726194e+01°)
1.12505848468881e+02	(-4.29637367277673e+01dB,8.91006914447054e+01°)
1.13288388529580e+02	(-4.29035399807790e+01dB,8.90944370301358e+01°)
1.14076371586843e+02	(-4.28433433628593e+01dB,8.90881391288558e+01°)
1.14869835499704e+02	(-4.27831468758075e+01dB,8.90817974387310e+01°)
1.15668818390529e+02	(-4.27229505214480e+01dB,8.90754116555323e+01°)
1.16473358646846e+02	(-4.26627543016305e+01dB,8.90689814729218e+01°)
1.17283494923188e+02	(-4.26025582182305e+01dB,8.90625065824384e+01°)
1.18099266142953e+02	(-4.25423622731496e+01dB,8.90559866734829e+01°)
1.18920711500272e+02	(-4.24821664683159e+01dB,8.90494214333035e+01°)
1.19747870461893e+02	(-4.24219708056843e+01dB,8.90428105469809e+01°)
1.20580782769076e+02	(-4.23617752872369e+01dB,8.90361536974135e+01°)
1.21419488439505e+02	(-4.23015799149835e+01dB,8.90294505653020e+01°)
1.22264027769207e+02	(-4.22413846909617e+01dB,8.90227008291351e+01°)
1.23114441334492e+02	(-4.21811896172375e+01dB,8.90159041651732e+01°)
1.23970769993899e+02	(-4.21209946959058e+01dB,8.90090602474340e+01°)
1.24833054890161e+02	(-4.20607999290904e+01dB,8.90021687476768e+01°)
1.25701337452183e+02	(-4.20006053189449e+01dB,8.89952293353866e+01°)
1.26575659397028e+02	(-4.19404108676527e+01dB,8.89882416777590e+01°)
1.27456062731927e+02	(-4.18802165774276e+01dB,8.89812054396843e+01°)
1.28342589756291e+02	(-4.18200224505144e+01dB,8.89741202837314e+01°)
1.29235283063750e+02	(-4.17598284891887e+01dB,8.89669858701323e+01°)
1.30134185544194e+02	(-4.16996346957582e+01dB,8.89598018567656e+01°)
1.31039340385837e+02	(-4.16394410725626e+01dB,8.89525678991409e+01°)
1.31950791077290e+02	(-4.15792476219739e+01dB,8.89452836503818e+01°)
1.32868581409652e+02	(-4.15190543463973e+01dB,8.89379487612102e+01°)
1.33792755478612e+02	(-4.14588612482714e+01dB,8.89305628799296e+01°)
1.34723357686569e+02	(-4.13986683300688e+01dB,8.89231256524081e+01°)
1.35660432744768e+02	(-4.13384755942965e+01dB,8.89156367220624e+01°)
1.36604025675440e+02	(-4.12782830434961e+01dB,8.89080957298405e+01°)
1.37554181813975e+02	(-4.12180906802448e+01dB,8.89005023142049e+01°)
1.38510946811093e+02	(-4.11578985071556e+01dB,8.88928561111156e+01°)
1.39474366635041e+02	(-4.10977065268778e+01dB,8.88851567540130e+01°)
1.40444487573800e+02	(-4.10375147420976e+01dB,8.88774038738003e+01°)
1.41421356237310e+02	(-4.09773231555383e+01dB,8.88695970988266e+01°)
1.42405019559708e+02	(-4.09171317699613e+01dB,8.88617360548690e+01°)
1.43395524801583e+02	(-4.08569405881665e+01dB,8.88538203651154e+01°)
1.44392919552250e+02	(-4.07967496129924e+01dB,8.88458496501463e+01°)
1.45397251732032e+02	(-4.07365588473171e+01dB,8.88378235279171e+01°)
1.46408569594563e+02	(-4.06763682940587e+01dB,8.88297416137406e+01°)
1.47426921729111e+02	(-4.06161779561759e+01dB,8.88216035202682e+01°)
1.48452357062906e+02	(-4.05559878366686e+01dB,8.88134088574720e+01°)
1.49484924863494e+02	(-4.04957979385781e+01dB,8.88051572326267e+01°)
1.50524674741107e+02	(-4.04356082649881e+01dB,8.87968482502909e+01°)
1.51571656651040e+02	(-4.03754188190253e+01dB,8.87884815122885e+01°)
1.52625920896057e+02	(-4.03152296038598e+01dB,8.87800566176901e+01°)
1.53687518128802e+02	(-4.02550406227054e+01dB,8.87715731627943e+01°)
1.54756499354240e+02	(-4.01948518788211e+01dB,8.87630307411085e+01°)
1.55832915932101e+02	(-4.01346633755106e+01dB,8.87544289433301e+01°)
1.56916819579351e+02	(-4.00744751161240e+01dB,8.87457673573271e+01°)
1.58008262372676e+02	(-4.00142871040576e+01dB,8.87370455681190e+01°)
1.59107296750985e+02	(-3.99540993427549e+01dB,8.87282631578571e+01°)
1.60213975517925e+02	(-3.98939118357074e+01dB,8.87194197058053e+01°)
1.61328351844426e+02	(-3.98337245864550e+01dB,8.87105147883198e+01°)
1.62450479271248e+02	(-3.97735375985866e+01dB,8.87015479788301e+01°)
1.63580411711557e+02	(-3.97133508757411e+01dB,8.86925188478183e+01°)
1.64718203453516e+02	(-3.96531644216079e+01dB,8.86834269627995e+01°)
1.65863909162889e+02	(-3.95929782399276e+01dB,8.86742718883012e+01°)
1.67017583885675e+02	(-3.95327923344927e+01dB,8.86650531858433e+01°)
1.68179283050744e+02	(-3.94726067091483e+01dB,8.86557704139175e+01°)
1.69349062472506e+02	(-3.94124213677930e+01dB,8.86464231279666e+01°)
1.70526978353592e+02	(-3.93522363143793e+01dB,8.86370108803638e+01°)
1.71713087287552e+02	(-3.92920515529148e+01dB,8.86275332203918e+01°)
1.72907446261574e+02	(-3.92318670874626e+01dB,8.86179896942221e+01°)
1.74110112659226e+02	(-3.91716829221420e+01dB,8.86083798448931e+01°)
1.75321144263208e+02	(-3.91114990611298e+01dB,8.85987032122895e+01°)
1.76540599258132e+02	(-3.90513155086603e+01dB,8.85889593331209e+01°)
1.77768536233315e+02	(-3.89911322690269e+01dB,8.85791477408994e+01°)
1.79005014185596e+02	(-3.89309493465825e+01dB,8.85692679659189e+01°)
1.80250092522167e+02	(-3.88707667457401e+01dB,8.85593195352328e+01°)
1.81503831063433e+02	(-3.88105844709742e+01dB,8.85493019726317e+01°)
1.82766290045881e+02	(-3.87504025268212e+01dB,8.85392147986220e+01°)
1.84037530124976e+02	(-3.86902209178804e+01dB,8.85290575304029e+01°)
1.85317612378075e+02	(-3.86300396488149e+01dB,8.85188296818445e+01°)
1.86606598307363e+02	(-3.85698587243525e+01dB,8.85085307634651e+01°)
1.87904549842804e+02	(-3.85096781492863e+01dB,8.84981602824082e+01°)
1.89211529345120e+02	(-3.84494979284760e+01dB,8.84877177424200e+01°)
1.90527599608789e+02	(-3.83893180668487e+01dB,8.84772026438265e+01°)
1.91852823865054e+02	(-3.83291385693997e+01dB,8.84666144835099e+01°)
1.93187265784970e+02	(-3.82689594411934e+01dB,8.84559527548858e+01°)
1.94530989482458e+02	(-3.82087806873645e+01dB,8.84452169478791e+01°)
1.95884059517387e+02	(-3.81486023131188e+01dB,8.84344065489014e+01°)
1.97246540898673e+02	(-3.80884243237343e+01dB,8.84235210408264e+01°)
1.98618499087409e+02	(-3.80282467245618e+01dB,8.84125599029663e+01°)
2.00000000000002e+02	(-3.79680695210265e+01dB,8.84015226110478e+01°)
2.01391110011345e+02	(-3.79078927186285e+01dB,8.83904086371879e+01°)
2.02791895958007e+02	(-3.78477163229443e+01dB,8.83792174498697e+01°)
2.04202425141440e+02	(-3.77875403396273e+01dB,8.83679485139174e+01°)
2.05622765331215e+02	(-3.77273647744094e+01dB,8.83566012904722e+01°)
2.07052984768277e+02	(-3.76671896331016e+01dB,8.83451752369672e+01°)
2.08493152168226e+02	(-3.76070149215955e+01dB,8.83336698071027e+01°)
2.09943336724615e+02	(-3.75468406458641e+01dB,8.83220844508205e+01°)
2.11403608112278e+02	(-3.74866668119632e+01dB,8.83104186142795e+01°)
2.12874036490674e+02	(-3.74264934260321e+01dB,8.82986717398293e+01°)
2.14354692507260e+02	(-3.73663204942953e+01dB,8.82868432659853e+01°)
2.15845647300887e+02	(-3.73061480230632e+01dB,8.82749326274028e+01°)
2.17346972505213e+02	(-3.72459760187334e+01dB,8.82629392548508e+01°)
2.18858740252150e+02	(-3.71858044877922e+01dB,8.82508625751863e+01°)
2.20381023175324e+02	(-3.71256334368155e+01dB,8.82387020113276e+01°)
2.21913894413571e+02	(-3.70654628724698e+01dB,8.82264569822286e+01°)
2.23457427614446e+02	(-3.70052928015140e+01dB,8.82141269028513e+01°)
2.25011696937764e+02	(-3.69451232308005e+01dB,8.82017111841402e+01°)
2.26576777059162e+02	(-3.68849541672760e+01dB,8.81892092329941e+01°)
2.28152743173687e+02	(-3.68247856179836e+01dB,8.81766204522402e+01°)
2.29739670999409e+02	(-3.67646175900634e+01dB,8.81639442406061e+01°)
2.31337636781060e+02	(-3.67044500907542e+01dB,8.81511799926931e+01°)
2.32946717293693e+02	(-3.66442831273947e+01dB,8.81383270989477e+01°)
2.34566989846378e+02	(-3.65841167074249e+01dB,8.81253849456347e+01°)
2.36198532285908e+02	(-3.65239508383877e+01dB,8.81123529148091e+01°)
2.37841423000546e+02	(-3.64637855279299e+01dB,8.80992303842876e+01°)
2.39495740923788e+02	(-3.64036207838039e+01dB,8.80860167276209e+01°)
2.41161565538154e+02	(-3.63434566138691e+01dB,8.80727113140651e+01°)
2.42838976879012e+02	(-3.62832930260933e+01dB,8.80593135085529e+01°)
2.44528055538416e+02	(-3.62231300285541e+01dB,8.80458226716651e+01°)
2.46228882668986e+02	(-3.61629676294407e+01dB,8.80322381596017e+01°)
2.47941539987800e+02	(-3.61028058370551e+01dB,8.80185593241526e+01°)
2.49666109780325e+02	(-3.60426446598137e+01dB,8.80047855126682e+01°)
2.51402674904368e+02	(-3.59824841062491e+01dB,8.79909160680306e+01°)
2.53151318794059e+02	(-3.59223241850113e+01dB,8.79769503286230e+01°)
2.54912125463855e+02	(-3.58621649048696e+01dB,8.79628876283006e+01°)
2.56685179512583e+02	(-3.58020062747140e+01dB,8.79487272963606e+01°)
2.58470566127501e+02	(-3.57418483035572e+01dB,8.79344686575116e+01°)
2.60268371088389e+02	(-3.56816910005358e+01dB,8.79201110318435e+01°)
2.62078680771675e+02	(-3.56215343749123e+01dB,8.79056537347970e+01°)
2.63901582154582e+02	(-3.55613784360767e+01dB,8.78910960771329e+01°)
2.65737162819305e+02	(-3.55012231935481e+01dB,8.78764373649010e+01°)
2.67585510957225e+02	(-3.54410686569769e+01dB,8.78616768994096e+01°)
2.69446715373141e+02	(-3.53809148361460e+01dB,8.78468139771934e+01°)
2.71320865489537e+02	(-3.53207617409730e+01dB,8.78318478899827e+01°)
2.73208051350882e+02	(-3.52606093815120e+01dB,8.78167779246716e+01°)
2.75108363627952e+02	(-3.52004577679551e+01dB,8.78016033632862e+01°)
2.77021893622188e+02	(-3.51403069106348e+01dB,8.77863234829526e+01°)
2.78948733270084e+02	(-3.50801568200254e+01dB,8.77709375558647e+01°)
2.80888975147603e+02	(-3.50200075067452e+01dB,8.77554448492519e+01°)
2.82842712474622e+02	(-3.49598589815584e+01dB,8.77398446253466e+01°)
2.84810039119418e+02	(-3.48997112553771e+01dB,8.77241361413513e+01°)
2.86791049603169e+02	(-3.48395643392632e+01dB,8.77083186494058e+01°)
2.88785839104503e+02	(-3.47794182444306e+01dB,8.76923913965542e+01°)
2.90794503464065e+02	(-3.47192729822469e+01dB,8.76763536247113e+01°)
2.92817139189129e+02	(-3.46591285642359e+01dB,8.76602045706295e+01°)
2.94853843458224e+02	(-3.45989850020795e+01dB,8.76439434658648e+01°)
2.96904714125813e+02	(-3.45388423076198e+01dB,8.76275695367431e+01°)
2.98969849726991e+02	(-3.44787004928612e+01dB,8.76110820043261e+01°)
3.01049349482217e+02	(-3.44185595699729e+01dB,8.75944800843771e+01°)
3.03143313302083e+02	(-3.43584195512908e+01dB,8.75777629873264e+01°)
3.05251841792115e+02	(-3.42982804493199e+01dB,8.75609299182371e+01°)
3.07375036257606e+02	(-3.42381422767364e+01dB,8.75439800767696e+01°)
3.09512998708482e+02	(-3.41780050463903e+01dB,8.75269126571474e+01°)
3.11665831864204e+02	(-3.41178687713075e+01dB,8.75097268481210e+01°)
3.13833639158704e+02	(-3.40577334646922e+01dB,8.74924218329334e+01°)
3.16016524745355e+02	(-3.39975991399293e+01dB,8.74749967892837e+01°)
3.18214593501971e+02	(-3.39374658105869e+01dB,8.74574508892918e+01°)
3.20427951035853e+02	(-3.38773334904186e+01dB,8.74397832994626e+01°)
3.22656703688855e+02	(-3.38172021933664e+01dB,8.74219931806490e+01°)
3.24900958542498e+02	(-3.37570719335625e+01dB,8.74040796880164e+01°)
3.27160823423117e+02	(-3.36969427253324e+01dB,8.73860419710056e+01°)
3.29436406907034e+02	(-3.36368145831975e+01dB,8.73678791732963e+01°)
3.31727818325781e+02	(-3.35766875218775e+01dB,8.73495904327701e+01°)
3.34035167771352e+02	(-3.35165615562928e+01dB,8.73311748814731e+01°)
3.36358566101490e+02	(-3.34564367015681e+01dB,8.73126316455789e+01°)
3.38698124945015e+02	(-3.33963129730338e+01dB,8.72939598453508e+01°)
3.41053956707187e+02	(-3.33361903862301e+01dB,8.72751585951040e+01°)
3.43426174575106e+02	(-3.32760689569088e+01dB,8.72562270031681e+01°)
3.45814892523151e+02	(-3.32159487010366e+01dB,8.72371641718483e+01°)
3.48220225318454e+02	(-3.31558296347978e+01dB,8.72179691973875e+01°)
3.50642288526419e+02	(-3.30957117745973e+01dB,8.71986411699278e+01°)
3.53081198516267e+02	(-3.30355951370633e+01dB,8.71791791734713e+01°)
3.55537072466633e+02	(-3.29754797390507e+01dB,8.71595822858417e+01°)
3.58010028371194e+02	(-3.29153655976436e+01dB,8.71398495786448e+01°)
3.60500185044337e+02	(-3.28552527301588e+01dB,8.71199801172293e+01°)
3.63007662126869e+02	(-3.27951411541486e+01dB,8.70999729606474e+01°)
3.65532580091765e+02	(-3.27350308874038e+01dB,8.70798271616147e+01°)
3.68075060249955e+02	(-3.26749219479574e+01dB,8.70595417664705e+01°)
3.70635224756154e+02	(-3.26148143540873e+01dB,8.70391158151378e+01°)
3.73213196614728e+02	(-3.25547081243196e+01dB,8.70185483410828e+01°)
3.75809099685610e+02	(-3.24946032774321e+01dB,8.69978383712742e+01°)
3.78423058690244e+02	(-3.24344998324576e+01dB,8.69769849261428e+01°)
3.81055199217580e+02	(-3.23743978086870e+01dB,8.69559870195404e+01°)
3.83705647730111e+02	(-3.23142972256729e+01dB,8.69348436586987e+01°)
3.86374531569944e+02	(-3.22541981032331e+01dB,8.69135538441881e+01°)
3.89061978964920e+02	(-3.21941004614539e+01dB,8.68921165698760e+01°)
3.91768119034777e+02	(-3.21340043206940e+01dB,8.68705308228848e+01°)
3.94493081797350e+02	(-3.20739097015875e+01dB,8.68487955835509e+01°)
3.97236998174820e+02	(-3.20138166250481e+01dB,8.68269098253815e+01°)
4.00000000000006e+02	(-3.19537251122724e+01dB,8.68048725150131e+01°)
4.02782220022694e+02	(-3.18936351847437e+01dB,8.67826826121685e+01°)
4.05583791916018e+02	(-3.18335468642359e+01dB,8.67603390696143e+01°)
4.08404850282884e+02	(-3.17734601728172e+01dB,8.67378408331181e+01°)
4.11245530662433e+02	(-3.17133751328537e+01dB,8.67151868414050e+01°)
4.14105969536557e+02	(-3.16532917670138e+01dB,8.66923760261147e+01°)
4.16986304336455e+02	(-3.15932100982718e+01dB,8.66694073117578e+01°)
4.19886673449233e+02	(-3.15331301499119e+01dB,8.66462796156723e+01°)
4.22807216224559e+02	(-3.14730519455325e+01dB,8.66229918479794e+01°)
4.25748072981351e+02	(-3.14129755090499e+01dB,8.65995429115397e+01°)
4.28709385014524e+02	(-3.13529008647027e+01dB,8.65759317019089e+01°)
4.31691294601778e+02	(-3.12928280370560e+01dB,8.65521571072931e+01°)
4.34693945010430e+02	(-3.12327570510056e+01dB,8.65282180085044e+01°)
4.37717480504303e+02	(-3.11726879317821e+01dB,8.65041132789159e+01°)
4.40762046350651e+02	(-3.11126207049557e+01dB,8.64798417844168e+01°)
4.43827788827145e+02	(-3.10525553964399e+01dB,8.64554023833670e+01°)
4.46914855228895e+02	(-3.09924920324968e+01dB,8.64307939265517e+01°)
4.50023393875531e+02	(-3.09324306397408e+01dB,8.64060152571359e+01°)
4.53153554118327e+02	(-3.08723712451436e+01dB,8.63810652106185e+01°)
4.56305486347377e+02	(-3.08123138760389e+01dB,8.63559426147863e+01°)
4.59479341998822e+02	(-3.07522585601267e+01dB,8.63306462896679e+01°)
4.62675273562123e+02	(-3.06922053254782e+01dB,8.63051750474871e+01°)
4.65893434587390e+02	(-3.06321542005407e+01dB,8.62795276926167e+01°)
4.69133979692759e+02	(-3.05721052141422e+01dB,8.62537030215315e+01°)
4.72397064571820e+02	(-3.05120583954963e+01dB,8.62276998227616e+01°)
4.75682846001096e+02	(-3.04520137742075e+01dB,8.62015168768448e+01°)
4.78991481847580e+02	(-3.03919713802757e+01dB,8.61751529562800e+01°)
4.82323131076312e+02	(-3.03319312441016e+01dB,8.61486068254791e+01°)
4.85677953758027e+02	(-3.02718933964919e+01dB,8.61218772407198e+01°)
4.89056111076836e+02	(-3.02118578686639e+01dB,8.60949629500974e+01°)
4.92457765337975e+02	(-3.01518246922514e+01dB,8.60678626934772e+01°)
4.95883079975603e+02	(-3.00917938993098e+01dB,8.60405752024458e+01°)
4.99332219560653e+02	(-3.00317655223213e+01dB,8.60130992002633e+01°)
5.02805349808740e+02	(-2.99717395942004e+01dB,8.59854334018141e+01°)
5.06302637588121e+02	(-2.99117161482995e+01dB,8.59575765135589e+01°)
5.09824250927714e+02	(-2.98516952184144e+01dB,8.59295272334851e+01°)
5.13370359025171e+02	(-2.97916768387896e+01dB,8.59012842510584e+01°)
5.16941132255006e+02	(-2.97316610441247e+01dB,8.58728462471729e+01°)
5.20536742176783e+02	(-2.96716478695794e+01dB,8.58442118941023e+01°)
5.24157361543355e+02	(-2.96116373507797e+01dB,8.58153798554500e+01°)
5.27803164309167e+02	(-2.95516295238236e+01dB,8.57863487860993e+01°)
5.31474325638614e+02	(-2.94916244252871e+01dB,8.57571173321637e+01°)
5.35171021914455e+02	(-2.94316220922305e+01dB,8.57276841309366e+01°)
5.38893430746286e+02	(-2.93716225622038e+01dB,8.56980478108414e+01°)
5.42641730979079e+02	(-2.93116258732536e+01dB,8.56682069913807e+01°)
5.46416102701768e+02	(-2.92516320639286e+01dB,8.56381602830860e+01°)
5.50216727255908e+02	(-2.91916411732866e+01dB,8.56079062874670e+01°)
5.54043787244380e+02	(-2.91316532409002e+01dB,8.55774435969604e+01°)
5.57897466540173e+02	(-2.90716683068636e+01dB,8.55467707948793e+01°)
5.61777950295209e+02	(-2.90116864117990e+01dB,8.55158864553618e+01°)
5.65685424949249e+02	(-2.89517075968632e+01dB,8.54847891433196e+01°)
5.69620078238839e+02	(-2.88917319037540e+01dB,8.54534774143865e+01°)
5.73582099206342e+02	(-2.88317593747172e+01dB,8.54219498148669e+01°)
5.77571678209009e+02	(-2.87717900525535e+01dB,8.53902048816841e+01°)
5.81589006928135e+02	(-2.87118239806247e+01dB,8.53582411423280e+01°)
5.85634278378261e+02	(-2.86518612028615e+01dB,8.53260571148032e+01°)
5.89707686916452e+02	(-2.85919017637697e+01dB,8.52936513075768e+01°)
5.93809428251631e+02	(-2.85319457084378e+01dB,8.52610222195262e+01°)
5.97939699453987e+02	(-2.84719930825442e+01dB,8.52281683398861e+01°)
6.02098698964439e+02	(-2.84120439323638e+01dB,8.51950881481964e+01°)
6.06286626604171e+02	(-2.83520983047761e+01dB,8.51617801142489e+01°)
6.10503683584236e+02	(-2.82921562472721e+01dB,8.51282426980350e+01°)
6.14750072515217e+02	(-2.82322178079621e+01dB,8.50944743496918e+01°)
6.19025997416968e+02	(-2.81722830355826e+01dB,8.50604735094497e+01°)
6.23331663728412e+02	(-2.81123519795049e+01dB,8.50262386075788e+01°)
6.27667278317413e+02	(-2.80524246897419e+01dB,8.49917680643351e+01°)
6.32033049490714e+02	(-2.79925012169565e+01dB,8.49570602899075e+01°)
6.36429187003948e+02	(-2.79325816124691e+01dB,8.49221136843638e+01°)
6.40855902071711e+02	(-2.78726659282660e+01dB,8.48869266375968e+01°)
6.45313407377714e+02	(-2.78127542170066e+01dB,8.48514975292703e+01°)
6.49801917085002e+02	(-2.77528465320327e+01dB,8.48158247287656e+01°)
6.54321646846238e+02	(-2.76929429273754e+01dB,8.47799065951264e+01°)
6.58872813814072e+02	(-2.76330434577646e+01dB,8.47437414770053e+01°)
6.63455636651567e+02	(-2.75731481786365e+01dB,8.47073277126090e+01°)
6.68070335542709e+02	(-2.75132571461425e+01dB,8.46706636296436e+01°)
6.72717132202986e+02	(-2.74533704171577e+01dB,8.46337475452604e+01°)
6.77396249890036e+02	(-2.73934880492892e+01dB,8.45965777660009e+01°)
6.82107913414380e+02	(-2.73336101008853e+01dB,8.45591525877418e+01°)
6.86852349150217e+02	(-2.72737366310441e+01dB,8.45214702956402e+01°)
6.91629785046307e+02	(-2.72138676996223e+01dB,8.44835291640784e+01°)
6.96440450636914e+02	(-2.71540033672443e+01dB,8.44453274566090e+01°)
7.01284577052843e+02	(-2.70941436953113e+01dB,8.44068634258993e+01°)
7.06162397032539e+02	(-2.70342887460104e+01dB,8.43681353136759e+01°)
7.11074144933271e+02	(-2.69744385823239e+01dB,8.43291413506694e+01°)
7.16020056742393e+02	(-2.69145932680385e+01dB,8.42898797565587e+01°)
7.21000370088680e+02	(-2.68547528677552e+01dB,8.42503487399154e+01°)
7.26015324253744e+02	(-2.67949174468982e+01dB,8.42105464981478e+01°)
7.31065160183536e+02	(-2.67350870717252e+01dB,8.41704712174455e+01°)
7.36150120499916e+02	(-2.66752618093365e+01dB,8.41301210727226e+01°)
