Freq.	V(n018)*10
1.00000000000000e+02	(-4.41138924005130e+01dB,8.92112233701085e+01°)
1.00695555005672e+02	(-4.40536935625375e+01dB,8.92057375298333e+01°)
1.01395947979003e+02	(-4.39934948244742e+01dB,8.92002135437535e+01°)
1.02101212570719e+02	(-4.39332961877162e+01dB,8.91946511467797e+01°)
1.02811382665607e+02	(-4.38730976536763e+01dB,8.91890500719836e+01°)
1.03526492384138e+02	(-4.38128992237867e+01dB,8.91834100505853e+01°)
1.04246576084112e+02	(-4.37527008994996e+01dB,8.91777308119405e+01°)
1.04971668362307e+02	(-4.36925026822875e+01dB,8.91720120835276e+01°)
1.05701804056138e+02	(-4.36323045736434e+01dB,8.91662535909351e+01°)
1.06437018245336e+02	(-4.35721065750810e+01dB,8.91604550578480e+01°)
1.07177346253629e+02	(-4.35119086881353e+01dB,8.91546162060350e+01°)
1.07922823650443e+02	(-4.34517109143624e+01dB,8.91487367553356e+01°)
1.08673486252606e+02	(-4.33915132553402e+01dB,8.91428164236459e+01°)
1.09429370126074e+02	(-4.33313157126686e+01dB,8.91368549269063e+01°)
1.10190511587661e+02	(-4.32711182879697e+01dB,8.91308519790871e+01°)
1.10956947206785e+02	(-4.32109209828883e+01dB,8.91248072921755e+01°)
1.11728713807222e+02	(-4.31507237990919e+01dB,8.91187205761616e+01°)
1.12505848468881e+02	(-4.30905267382715e+01dB,8.91125915390250e+01°)
1.13288388529580e+02	(-4.30303298021415e+01dB,8.91064198867206e+01°)
1.14076371586843e+02	(-4.29701329924400e+01dB,8.91002053231647e+01°)
1.14869835499704e+02	(-4.29099363109296e+01dB,8.90939475502212e+01°)
1.15668818390529e+02	(-4.28497397593972e+01dB,8.90876462676872e+01°)
1.16473358646846e+02	(-4.27895433396548e+01dB,8.90813011732791e+01°)
1.17283494923188e+02	(-4.27293470535393e+01dB,8.90749119626179e+01°)
1.18099266142953e+02	(-4.26691509029135e+01dB,8.90684783292148e+01°)
1.18920711500272e+02	(-4.26089548896660e+01dB,8.90619999644572e+01°)
1.19747870461893e+02	(-4.25487590157116e+01dB,8.90554765575934e+01°)
1.20580782769076e+02	(-4.24885632829918e+01dB,8.90489077957183e+01°)
1.21419488439505e+02	(-4.24283676934753e+01dB,8.90422933637586e+01°)
1.22264027769207e+02	(-4.23681722491578e+01dB,8.90356329444575e+01°)
1.23114441334492e+02	(-4.23079769520632e+01dB,8.90289262183603e+01°)
1.23970769993899e+02	(-4.22477818042433e+01dB,8.90221728637987e+01°)
1.24833054890161e+02	(-4.21875868077786e+01dB,8.90153725568759e+01°)
1.25701337452183e+02	(-4.21273919647784e+01dB,8.90085249714512e+01°)
1.26575659397028e+02	(-4.20671972773814e+01dB,8.90016297791247e+01°)
1.27456062731927e+02	(-4.20070027477562e+01dB,8.89946866492215e+01°)
1.28342589756291e+02	(-4.19468083781013e+01dB,8.89876952487764e+01°)
1.29235283063750e+02	(-4.18866141706460e+01dB,8.89806552425180e+01°)
1.30134185544194e+02	(-4.18264201276506e+01dB,8.89735662928526e+01°)
1.31039340385837e+02	(-4.17662262514066e+01dB,8.89664280598491e+01°)
1.31950791077290e+02	(-4.17060325442378e+01dB,8.89592402012217e+01°)
1.32868581409652e+02	(-4.16458390084999e+01dB,8.89520023723150e+01°)
1.33792755478612e+02	(-4.15856456465816e+01dB,8.89447142260869e+01°)
1.34723357686569e+02	(-4.15254524609048e+01dB,8.89373754130925e+01°)
1.35660432744768e+02	(-4.14652594539250e+01dB,8.89299855814676e+01°)
1.36604025675440e+02	(-4.14050666281319e+01dB,8.89225443769123e+01°)
1.37554181813975e+02	(-4.13448739860498e+01dB,8.89150514426737e+01°)
1.38510946811093e+02	(-4.12846815302381e+01dB,8.89075064195301e+01°)
1.39474366635041e+02	(-4.12244892632918e+01dB,8.88999089457728e+01°)
1.40444487573800e+02	(-4.11642971878420e+01dB,8.88922586571903e+01°)
1.41421356237310e+02	(-4.11041053065563e+01dB,8.88845551870503e+01°)
1.42405019559708e+02	(-4.10439136221395e+01dB,8.88767981660827e+01°)
1.43395524801583e+02	(-4.09837221373339e+01dB,8.88689872224624e+01°)
1.44392919552250e+02	(-4.09235308549199e+01dB,8.88611219817916e+01°)
1.45397251732032e+02	(-4.08633397777166e+01dB,8.88532020670821e+01°)
1.46408569594563e+02	(-4.08031489085823e+01dB,8.88452270987378e+01°)
1.47426921729111e+02	(-4.07429582504150e+01dB,8.88371966945367e+01°)
1.48452357062906e+02	(-4.06827678061529e+01dB,8.88291104696132e+01°)
1.49484924863494e+02	(-4.06225775787752e+01dB,8.88209680364396e+01°)
1.50524674741107e+02	(-4.05623875713023e+01dB,8.88127690048081e+01°)
1.51571656651040e+02	(-4.05021977867967e+01dB,8.88045129818127e+01°)
1.52625920896057e+02	(-4.04420082283634e+01dB,8.87961995718303e+01°)
1.53687518128802e+02	(-4.03818188991505e+01dB,8.87878283765026e+01°)
1.54756499354240e+02	(-4.03216298023499e+01dB,8.87793989947170e+01°)
1.55832915932101e+02	(-4.02614409411977e+01dB,8.87709110225882e+01°)
1.56916819579351e+02	(-4.02012523189752e+01dB,8.87623640534388e+01°)
1.58008262372676e+02	(-4.01410639390090e+01dB,8.87537576777808e+01°)
1.59107296750985e+02	(-4.00808758046720e+01dB,8.87450914832960e+01°)
1.60213975517925e+02	(-4.00206879193840e+01dB,8.87363650548167e+01°)
1.61328351844426e+02	(-3.99605002866122e+01dB,8.87275779743064e+01°)
1.62450479271248e+02	(-3.99003129098719e+01dB,8.87187298208404e+01°)
1.63580411711557e+02	(-3.98401257927275e+01dB,8.87098201705857e+01°)
1.64718203453516e+02	(-3.97799389387924e+01dB,8.87008485967816e+01°)
1.65863909162889e+02	(-3.97197523517305e+01dB,8.86918146697195e+01°)
1.67017583885675e+02	(-3.96595660352566e+01dB,8.86827179567227e+01°)
1.68179283050744e+02	(-3.95993799931367e+01dB,8.86735580221267e+01°)
1.69349062472506e+02	(-3.95391942291893e+01dB,8.86643344272582e+01°)
1.70526978353592e+02	(-3.94790087472860e+01dB,8.86550467304153e+01°)
1.71713087287552e+02	(-3.94188235513520e+01dB,8.86456944868463e+01°)
1.72907446261574e+02	(-3.93586386453668e+01dB,8.86362772487292e+01°)
1.74110112659226e+02	(-3.92984540333653e+01dB,8.86267945651510e+01°)
1.75321144263208e+02	(-3.92382697194384e+01dB,8.86172459820866e+01°)
1.76540599258132e+02	(-3.91780857077336e+01dB,8.86076310423773e+01°)
1.77768536233315e+02	(-3.91179020024559e+01dB,8.85979492857100e+01°)
1.79005014185596e+02	(-3.90577186078689e+01dB,8.85882002485956e+01°)
1.80250092522167e+02	(-3.89975355282950e+01dB,8.85783834643474e+01°)
1.81503831063433e+02	(-3.89373527681167e+01dB,8.85684984630592e+01°)
1.82766290045881e+02	(-3.88771703317772e+01dB,8.85585447715842e+01°)
1.84037530124976e+02	(-3.88169882237813e+01dB,8.85485219135120e+01°)
1.85317612378075e+02	(-3.87568064486962e+01dB,8.85384294091473e+01°)
1.86606598307363e+02	(-3.86966250111526e+01dB,8.85282667754873e+01°)
1.87904549842804e+02	(-3.86364439158452e+01dB,8.85180335261992e+01°)
1.89211529345120e+02	(-3.85762631675337e+01dB,8.85077291715979e+01°)
1.90527599608789e+02	(-3.85160827710438e+01dB,8.84973532186232e+01°)
1.91852823865054e+02	(-3.84559027312683e+01dB,8.84869051708170e+01°)
1.93187265784970e+02	(-3.83957230531674e+01dB,8.84763845283002e+01°)
1.94530989482458e+02	(-3.83355437417703e+01dB,8.84657907877496e+01°)
1.95884059517387e+02	(-3.82753648021756e+01dB,8.84551234423749e+01°)
1.97246540898673e+02	(-3.82151862395528e+01dB,8.84443819818948e+01°)
1.98618499087409e+02	(-3.81550080591428e+01dB,8.84335658925137e+01°)
2.00000000000002e+02	(-3.80948302662590e+01dB,8.84226746568983e+01°)
2.01391110011345e+02	(-3.80346528662885e+01dB,8.84117077541530e+01°)
2.02791895958007e+02	(-3.79744758646930e+01dB,8.84006646597964e+01°)
2.04202425141440e+02	(-3.79142992670097e+01dB,8.83895448457370e+01°)
2.05622765331215e+02	(-3.78541230788524e+01dB,8.83783477802489e+01°)
2.07052984768277e+02	(-3.77939473059126e+01dB,8.83670729279473e+01°)
2.08493152168226e+02	(-3.77337719539606e+01dB,8.83557197497637e+01°)
2.09943336724615e+02	(-3.76735970288466e+01dB,8.83442877029214e+01°)
2.11403608112278e+02	(-3.76134225365016e+01dB,8.83327762409105e+01°)
2.12874036490674e+02	(-3.75532484829385e+01dB,8.83211848134625e+01°)
2.14354692507260e+02	(-3.74930748742538e+01dB,8.83095128665253e+01°)
2.15845647300887e+02	(-3.74329017166277e+01dB,8.82977598422380e+01°)
2.17346972505213e+02	(-3.73727290163264e+01dB,8.82859251789047e+01°)
2.18858740252150e+02	(-3.73125567797023e+01dB,8.82740083109694e+01°)
2.20381023175324e+02	(-3.72523850131959e+01dB,8.82620086689897e+01°)
2.21913894413571e+02	(-3.71922137233365e+01dB,8.82499256796110e+01°)
2.23457427614446e+02	(-3.71320429167438e+01dB,8.82377587655402e+01°)
2.25011696937764e+02	(-3.70718726001287e+01dB,8.82255073455192e+01°)
2.26576777059162e+02	(-3.70117027802951e+01dB,8.82131708342984e+01°)
2.28152743173687e+02	(-3.69515334641408e+01dB,8.82007486426103e+01°)
2.29739670999409e+02	(-3.68913646586586e+01dB,8.81882401771422e+01°)
2.31337636781060e+02	(-3.68311963709381e+01dB,8.81756448405093e+01°)
2.32946717293693e+02	(-3.67710286081669e+01dB,8.81629620312278e+01°)
2.34566989846378e+02	(-3.67108613776315e+01dB,8.81501911436871e+01°)
2.36198532285908e+02	(-3.66506946867191e+01dB,8.81373315681225e+01°)
2.37841423000546e+02	(-3.65905285429189e+01dB,8.81243826905876e+01°)
2.39495740923788e+02	(-3.65303629538235e+01dB,8.81113438929260e+01°)
2.41161565538154e+02	(-3.64701979271299e+01dB,8.80982145527439e+01°)
2.42838976879012e+02	(-3.64100334706417e+01dB,8.80849940433813e+01°)
2.44528055538416e+02	(-3.63498695922698e+01dB,8.80716817338840e+01°)
2.46228882668986e+02	(-3.62897063000342e+01dB,8.80582769889748e+01°)
2.47941539987800e+02	(-3.62295436020657e+01dB,8.80447791690251e+01°)
2.49666109780325e+02	(-3.61693815066070e+01dB,8.80311876300257e+01°)
2.51402674904368e+02	(-3.61092200220144e+01dB,8.80175017235577e+01°)
2.53151318794059e+02	(-3.60490591567593e+01dB,8.80037207967636e+01°)
2.54912125463855e+02	(-3.59888989194298e+01dB,8.79898441923177e+01°)
2.56685179512583e+02	(-3.59287393187325e+01dB,8.79758712483963e+01°)
2.58470566127501e+02	(-3.58685803634937e+01dB,8.79618012986482e+01°)
2.60268371088389e+02	(-3.58084220626613e+01dB,8.79476336721648e+01°)
2.62078680771675e+02	(-3.57482644253062e+01dB,8.79333676934496e+01°)
2.63901582154582e+02	(-3.56881074606245e+01dB,8.79190026823885e+01°)
2.65737162819305e+02	(-3.56279511779386e+01dB,8.79045379542187e+01°)
2.67585510957225e+02	(-3.55677955866991e+01dB,8.78899728194985e+01°)
2.69446715373141e+02	(-3.55076406964869e+01dB,8.78753065840760e+01°)
2.71320865489537e+02	(-3.54474865170142e+01dB,8.78605385490588e+01°)
2.73208051350882e+02	(-3.53873330581273e+01dB,8.78456680107820e+01°)
2.75108363627952e+02	(-3.53271803298073e+01dB,8.78306942607773e+01°)
2.77021893622188e+02	(-3.52670283421730e+01dB,8.78156165857415e+01°)
2.78948733270084e+02	(-3.52068771054818e+01dB,8.78004342675042e+01°)
2.80888975147603e+02	(-3.51467266301323e+01dB,8.77851465829967e+01°)
2.82842712474622e+02	(-3.50865769266659e+01dB,8.77697528042191e+01°)
2.84810039119418e+02	(-3.50264280057686e+01dB,8.77542521982086e+01°)
2.86791049603169e+02	(-3.49662798782732e+01dB,8.77386440270064e+01°)
2.88785839104503e+02	(-3.49061325551613e+01dB,8.77229275476258e+01°)
2.90794503464065e+02	(-3.48459860475651e+01dB,8.77071020120187e+01°)
2.92817139189129e+02	(-3.47858403667694e+01dB,8.76911666670429e+01°)
2.94853843458224e+02	(-3.47256955242140e+01dB,8.76751207544286e+01°)
2.96904714125813e+02	(-3.46655515314956e+01dB,8.76589635107455e+01°)
2.98969849726991e+02	(-3.46054084003696e+01dB,8.76426941673685e+01°)
3.01049349482217e+02	(-3.45452661427529e+01dB,8.76263119504444e+01°)
3.03143313302083e+02	(-3.44851247707253e+01dB,8.76098160808579e+01°)
3.05251841792115e+02	(-3.44249842965326e+01dB,8.75932057741972e+01°)
3.07375036257606e+02	(-3.43648447325878e+01dB,8.75764802407197e+01°)
3.09512998708482e+02	(-3.43047060914742e+01dB,8.75596386853175e+01°)
3.11665831864204e+02	(-3.42445683859472e+01dB,8.75426803074830e+01°)
3.13833639158704e+02	(-3.41844316289368e+01dB,8.75256043012732e+01°)
3.16016524745355e+02	(-3.41242958335500e+01dB,8.75084098552751e+01°)
3.18214593501971e+02	(-3.40641610130729e+01dB,8.74910961525706e+01°)
3.20427951035853e+02	(-3.40040271809735e+01dB,8.74736623707003e+01°)
3.22656703688855e+02	(-3.39438943509037e+01dB,8.74561076816283e+01°)
3.24900958542498e+02	(-3.38837625367021e+01dB,8.74384312517064e+01°)
3.27160823423117e+02	(-3.38236317523963e+01dB,8.74206322416376e+01°)
3.29436406907034e+02	(-3.37635020122057e+01dB,8.74027098064401e+01°)
3.31727818325781e+02	(-3.37033733305436e+01dB,8.73846630954106e+01°)
3.34035167771352e+02	(-3.36432457220201e+01dB,8.73664912520880e+01°)
3.36358566101490e+02	(-3.35831192014448e+01dB,8.73481934142163e+01°)
3.38698124945015e+02	(-3.35229937838293e+01dB,8.73297687137075e+01°)
3.41053956707187e+02	(-3.34628694843899e+01dB,8.73112162766042e+01°)
3.43426174575106e+02	(-3.34027463185504e+01dB,8.72925352230429e+01°)
3.45814892523151e+02	(-3.33426243019447e+01dB,8.72737246672153e+01°)
3.48220225318454e+02	(-3.32825034504199e+01dB,8.72547837173312e+01°)
3.50642288526419e+02	(-3.32223837800387e+01dB,8.72357114755803e+01°)
3.53081198516267e+02	(-3.31622653070829e+01dB,8.72165070380939e+01°)
3.55537072466633e+02	(-3.31021480480555e+01dB,8.71971694949063e+01°)
3.58010028371194e+02	(-3.30420320196843e+01dB,8.71776979299166e+01°)
3.60500185044337e+02	(-3.29819172389247e+01dB,8.71580914208497e+01°)
3.63007662126869e+02	(-3.29218037229624e+01dB,8.71383490392169e+01°)
3.65532580091765e+02	(-3.28616914892169e+01dB,8.71184698502774e+01°)
3.68075060249955e+02	(-3.28015805553444e+01dB,8.70984529129984e+01°)
3.70635224756154e+02	(-3.27414709392408e+01dB,8.70782972800154e+01°)
3.73213196614728e+02	(-3.26813626590451e+01dB,8.70580019975930e+01°)
3.75809099685610e+02	(-3.26212557331426e+01dB,8.70375661055842e+01°)
3.78423058690244e+02	(-3.25611501801678e+01dB,8.70169886373907e+01°)
3.81055199217580e+02	(-3.25010460190080e+01dB,8.69962686199223e+01°)
3.83705647730111e+02	(-3.24409432688069e+01dB,8.69754050735563e+01°)
3.86374531569944e+02	(-3.23808419489672e+01dB,8.69543970120968e+01°)
3.89061978964920e+02	(-3.23207420791547e+01dB,8.69332434427338e+01°)
3.91768119034777e+02	(-3.22606436793014e+01dB,8.69119433660017e+01°)
3.94493081797350e+02	(-3.22005467696093e+01dB,8.68904957757384e+01°)
3.97236998174820e+02	(-3.21404513705535e+01dB,8.68688996590433e+01°)
4.00000000000006e+02	(-3.20803575028861e+01dB,8.68471539962358e+01°)
4.02782220022694e+02	(-3.20202651876399e+01dB,8.68252577608132e+01°)
4.05583791916018e+02	(-3.19601744461319e+01dB,8.68032099194089e+01°)
4.08404850282884e+02	(-3.19000852999668e+01dB,8.67810094317493e+01°)
4.11245530662433e+02	(-3.18399977710413e+01dB,8.67586552506121e+01°)
4.14105969536557e+02	(-3.17799118815474e+01dB,8.67361463217831e+01°)
4.16986304336455e+02	(-3.17198276539768e+01dB,8.67134815840133e+01°)
4.19886673449233e+02	(-3.16597451111241e+01dB,8.66906599689761e+01°)
4.22807216224559e+02	(-3.15996642760913e+01dB,8.66676804012235e+01°)
4.25748072981351e+02	(-3.15395851722916e+01dB,8.66445417981429e+01°)
4.28709385014524e+02	(-3.14795078234536e+01dB,8.66212430699135e+01°)
4.31691294601778e+02	(-3.14194322536251e+01dB,8.65977831194620e+01°)
4.34693945010430e+02	(-3.13593584871774e+01dB,8.65741608424189e+01°)
4.37717480504303e+02	(-3.12992865488095e+01dB,8.65503751270743e+01°)
4.40762046350651e+02	(-3.12392164635524e+01dB,8.65264248543329e+01°)
4.43827788827145e+02	(-3.11791482567734e+01dB,8.65023088976700e+01°)
4.46914855228895e+02	(-3.11190819541802e+01dB,8.64780261230862e+01°)
4.50023393875531e+02	(-3.10590175818257e+01dB,8.64535753890626e+01°)
4.53153554118327e+02	(-3.09989551661119e+01dB,8.64289555465156e+01°)
4.56305486347377e+02	(-3.09388947337950e+01dB,8.64041654387511e+01°)
4.59479341998822e+02	(-3.08788363119896e+01dB,8.63792039014198e+01°)
4.62675273562123e+02	(-3.08187799281734e+01dB,8.63540697624704e+01°)
4.65893434587390e+02	(-3.07587256101917e+01dB,8.63287618421044e+01°)
4.69133979692759e+02	(-3.06986733862626e+01dB,8.63032789527294e+01°)
4.72397064571820e+02	(-3.06386232849812e+01dB,8.62776198989134e+01°)
4.75682846001096e+02	(-3.05785753353246e+01dB,8.62517834773377e+01°)
4.78991481847580e+02	(-3.05185295666571e+01dB,8.62257684767506e+01°)
4.82323131076312e+02	(-3.04584860087347e+01dB,8.61995736779203e+01°)
4.85677953758027e+02	(-3.03984446917103e+01dB,8.61731978535881e+01°)
4.89056111076836e+02	(-3.03384056461390e+01dB,8.61466397684209e+01°)
4.92457765337975e+02	(-3.02783689029827e+01dB,8.61198981789640e+01°)
4.95883079975603e+02	(-3.02183344936156e+01dB,8.60929718335934e+01°)
4.99332219560653e+02	(-3.01583024498295e+01dB,8.60658594724682e+01°)
5.02805349808740e+02	(-3.00982728038389e+01dB,8.60385598274826e+01°)
5.06302637588121e+02	(-3.00382455882864e+01dB,8.60110716222176e+01°)
5.09824250927714e+02	(-2.99782208362483e+01dB,8.59833935718931e+01°)
5.13370359025171e+02	(-2.99181985812396e+01dB,8.59555243833192e+01°)
5.16941132255006e+02	(-2.98581788572203e+01dB,8.59274627548475e+01°)
5.20536742176783e+02	(-2.97981616986003e+01dB,8.58992073763226e+01°)
5.24157361543355e+02	(-2.97381471402453e+01dB,8.58707569290331e+01°)
5.27803164309167e+02	(-2.96781352174828e+01dB,8.58421100856622e+01°)
5.31474325638614e+02	(-2.96181259661075e+01dB,8.58132655102387e+01°)
5.35171021914455e+02	(-2.95581194223873e+01dB,8.57842218580875e+01°)
5.38893430746286e+02	(-2.94981156230693e+01dB,8.57549777757800e+01°)
5.42641730979079e+02	(-2.94381146053858e+01dB,8.57255319010841e+01°)
5.46416102701768e+02	(-2.93781164070604e+01dB,8.56958828629145e+01°)
5.50216727255908e+02	(-2.93181210663136e+01dB,8.56660292812827e+01°)
5.54043787244380e+02	(-2.92581286218700e+01dB,8.56359697672466e+01°)
5.57897466540173e+02	(-2.91981391129635e+01dB,8.56057029228600e+01°)
5.61777950295209e+02	(-2.91381525793444e+01dB,8.55752273411222e+01°)
5.65685424949249e+02	(-2.90781690612854e+01dB,8.55445416059273e+01°)
5.69620078238839e+02	(-2.90181885995883e+01dB,8.55136442920132e+01°)
5.73582099206342e+02	(-2.89582112355902e+01dB,8.54825339649108e+01°)
5.77571678209009e+02	(-2.88982370111707e+01dB,8.54512091808926e+01°)
5.81589006928135e+02	(-2.88382659687578e+01dB,8.54196684869215e+01°)
5.85634278378261e+02	(-2.87782981513354e+01dB,8.53879104205994e+01°)
5.89707686916452e+02	(-2.87183336024497e+01dB,8.53559335101155e+01°)
5.93809428251631e+02	(-2.86583723662163e+01dB,8.53237362741947e+01°)
5.97939699453987e+02	(-2.85984144873269e+01dB,8.52913172220456e+01°)
6.02098698964439e+02	(-2.85384600110567e+01dB,8.52586748533083e+01°)
6.06286626604171e+02	(-2.84785089832713e+01dB,8.52258076580028e+01°)
6.10503683584236e+02	(-2.84185614504341e+01dB,8.51927141164761e+01°)
6.14750072515217e+02	(-2.83586174596132e+01dB,8.51593926993499e+01°)
6.19025997416968e+02	(-2.82986770584893e+01dB,8.51258418674686e+01°)
6.23331663728412e+02	(-2.82387402953625e+01dB,8.50920600718456e+01°)
6.27667278317413e+02	(-2.81788072191605e+01dB,8.50580457536114e+01°)
6.32033049490714e+02	(-2.81188778794456e+01dB,8.50237973439601e+01°)
6.36429187003948e+02	(-2.80589523264226e+01dB,8.49893132640965e+01°)
6.40855902071711e+02	(-2.79990306109467e+01dB,8.49545919251830e+01°)
6.45313407377714e+02	(-2.79391127845311e+01dB,8.49196317282859e+01°)
6.49801917085002e+02	(-2.78791988993549e+01dB,8.48844310643223e+01°)
6.54321646846238e+02	(-2.78192890082714e+01dB,8.48489883140063e+01°)
6.58872813814072e+02	(-2.77593831648157e+01dB,8.48133018477957e+01°)
6.63455636651567e+02	(-2.76994814232132e+01dB,8.47773700258376e+01°)
6.68070335542709e+02	(-2.76395838383878e+01dB,8.47411911979147e+01°)
6.72717132202986e+02	(-2.75796904659702e+01dB,8.47047637033916e+01°)
6.77396249890036e+02	(-2.75198013623061e+01dB,8.46680858711600e+01°)
6.82107913414380e+02	(-2.74599165844649e+01dB,8.46311560195851e+01°)
6.86852349150217e+02	(-2.74000361902484e+01dB,8.45939724564507e+01°)
6.91629785046307e+02	(-2.73401602381991e+01dB,8.45565334789048e+01°)
6.96440450636914e+02	(-2.72802887876093e+01dB,8.45188373734054e+01°)
7.01284577052843e+02	(-2.72204218985296e+01dB,8.44808824156652e+01°)
7.06162397032539e+02	(-2.71605596317783e+01dB,8.44426668705972e+01°)
7.11074144933271e+02	(-2.71007020489497e+01dB,8.44041889922596e+01°)
7.16020056742393e+02	(-2.70408492124241e+01dB,8.43654470238010e+01°)
7.21000370088680e+02	(-2.69810011853761e+01dB,8.43264391974048e+01°)
7.26015324253744e+02	(-2.69211580317845e+01dB,8.42871637342347e+01°)
7.31065160183536e+02	(-2.68613198164414e+01dB,8.42476188443785e+01°)
7.36150120499916e+02	(-2.68014866049619e+01dB,8.42078027267937e+01°)
