Freq.	V(n036)*10
1.00000000000000e+02	(-4.38619943619023e+01dB,8.92187748158255e+01°)
1.00695555005672e+02	(-4.38017939135827e+01dB,8.92133411172024e+01°)
1.01395947979003e+02	(-4.37415935427483e+01dB,8.92078696274160e+01°)
1.02101212570719e+02	(-4.36813932504807e+01dB,8.92023600836753e+01°)
1.02811382665607e+02	(-4.36211930378765e+01dB,8.91968122213627e+01°)
1.03526492384138e+02	(-4.35609929060478e+01dB,8.91912257740215e+01°)
1.04246576084112e+02	(-4.35007928561222e+01dB,8.91856004733433e+01°)
1.04971668362307e+02	(-4.34405928892429e+01dB,8.91799360491548e+01°)
1.05701804056138e+02	(-4.33803930065691e+01dB,8.91742322294050e+01°)
1.06437018245336e+02	(-4.33201932092763e+01dB,8.91684887401523e+01°)
1.07177346253629e+02	(-4.32599934985564e+01dB,8.91627053055514e+01°)
1.07922823650443e+02	(-4.31997938756177e+01dB,8.91568816478397e+01°)
1.08673486252606e+02	(-4.31395943416857e+01dB,8.91510174873244e+01°)
1.09429370126074e+02	(-4.30793948980027e+01dB,8.91451125423692e+01°)
1.10190511587661e+02	(-4.30191955458286e+01dB,8.91391665293803e+01°)
1.10956947206785e+02	(-4.29589962864406e+01dB,8.91331791627932e+01°)
1.11728713807222e+02	(-4.28987971211340e+01dB,8.91271501550590e+01°)
1.12505848468881e+02	(-4.28385980512221e+01dB,8.91210792166307e+01°)
1.13288388529580e+02	(-4.27783990780365e+01dB,8.91149660559491e+01°)
1.14076371586843e+02	(-4.27182002029273e+01dB,8.91088103794289e+01°)
1.14869835499704e+02	(-4.26580014272636e+01dB,8.91026118914449e+01°)
1.15668818390529e+02	(-4.25978027524335e+01dB,8.90963702943175e+01°)
1.16473358646846e+02	(-4.25376041798446e+01dB,8.90900852882989e+01°)
1.17283494923188e+02	(-4.24774057109240e+01dB,8.90837565715582e+01°)
1.18099266142953e+02	(-4.24172073471189e+01dB,8.90773838401674e+01°)
1.18920711500272e+02	(-4.23570090898965e+01dB,8.90709667880866e+01°)
1.19747870461893e+02	(-4.22968109407445e+01dB,8.90645051071496e+01°)
1.20580782769076e+02	(-4.22366129011715e+01dB,8.90579984870490e+01°)
1.21419488439505e+02	(-4.21764149727072e+01dB,8.90514466153211e+01°)
1.22264027769207e+02	(-4.21162171569024e+01dB,8.90448491773316e+01°)
1.23114441334492e+02	(-4.20560194553297e+01dB,8.90382058562600e+01°)
1.23970769993899e+02	(-4.19958218695837e+01dB,8.90315163330845e+01°)
1.24833054890161e+02	(-4.19356244012812e+01dB,8.90247802865670e+01°)
1.25701337452183e+02	(-4.18754270520615e+01dB,8.90179973932377e+01°)
1.26575659397028e+02	(-4.18152298235869e+01dB,8.90111673273792e+01°)
1.27456062731927e+02	(-4.17550327175428e+01dB,8.90042897610117e+01°)
1.28342589756291e+02	(-4.16948357356382e+01dB,8.89973643638764e+01°)
1.29235283063750e+02	(-4.16346388796060e+01dB,8.89903908034205e+01°)
1.30134185544194e+02	(-4.15744421512030e+01dB,8.89833687447809e+01°)
1.31039340385837e+02	(-4.15142455522110e+01dB,8.89762978507682e+01°)
1.31950791077290e+02	(-4.14540490844363e+01dB,8.89691777818508e+01°)
1.32868581409652e+02	(-4.13938527497105e+01dB,8.89620081961382e+01°)
1.33792755478612e+02	(-4.13336565498907e+01dB,8.89547887493654e+01°)
1.34723357686569e+02	(-4.12734604868602e+01dB,8.89475190948759e+01°)
1.35660432744768e+02	(-4.12132645625282e+01dB,8.89401988836049e+01°)
1.36604025675440e+02	(-4.11530687788309e+01dB,8.89328277640636e+01°)
1.37554181813975e+02	(-4.10928731377312e+01dB,8.89254053823213e+01°)
1.38510946811093e+02	(-4.10326776412198e+01dB,8.89179313819891e+01°)
1.39474366635041e+02	(-4.09724822913147e+01dB,8.89104054042029e+01°)
1.40444487573800e+02	(-4.09122870900624e+01dB,8.89028270876059e+01°)
1.41421356237310e+02	(-4.08520920395379e+01dB,8.88951960683318e+01°)
1.42405019559708e+02	(-4.07918971418451e+01dB,8.88875119799868e+01°)
1.43395524801583e+02	(-4.07317023991174e+01dB,8.88797744536329e+01°)
1.44392919552250e+02	(-4.06715078135178e+01dB,8.88719831177695e+01°)
1.45397251732032e+02	(-4.06113133872395e+01dB,8.88641375983161e+01°)
1.46408569594563e+02	(-4.05511191225066e+01dB,8.88562375185945e+01°)
1.47426921729111e+02	(-4.04909250215739e+01dB,8.88482824993105e+01°)
1.48452357062906e+02	(-4.04307310867277e+01dB,8.88402721585361e+01°)
1.49484924863494e+02	(-4.03705373202865e+01dB,8.88322061116910e+01°)
1.50524674741107e+02	(-4.03103437246008e+01dB,8.88240839715243e+01°)
1.51571656651040e+02	(-4.02501503020542e+01dB,8.88159053480963e+01°)
1.52625920896057e+02	(-4.01899570550634e+01dB,8.88076698487596e+01°)
1.53687518128802e+02	(-4.01297639860789e+01dB,8.87993770781405e+01°)
1.54756499354240e+02	(-4.00695710975853e+01dB,8.87910266381199e+01°)
1.55832915932101e+02	(-4.00093783921021e+01dB,8.87826181278147e+01°)
1.56916819579351e+02	(-3.99491858721837e+01dB,8.87741511435583e+01°)
1.58008262372676e+02	(-3.98889935404202e+01dB,8.87656252788817e+01°)
1.59107296750985e+02	(-3.98288013994381e+01dB,8.87570401244937e+01°)
1.60213975517925e+02	(-3.97686094519003e+01dB,8.87483952682618e+01°)
1.61328351844426e+02	(-3.97084177005070e+01dB,8.87396902951923e+01°)
1.62450479271248e+02	(-3.96482261479959e+01dB,8.87309247874105e+01°)
1.63580411711557e+02	(-3.95880347971432e+01dB,8.87220983241409e+01°)
1.64718203453516e+02	(-3.95278436507636e+01dB,8.87132104816872e+01°)
1.65863909162889e+02	(-3.94676527117112e+01dB,8.87042608334119e+01°)
1.67017583885675e+02	(-3.94074619828800e+01dB,8.86952489497160e+01°)
1.68179283050744e+02	(-3.93472714672041e+01dB,8.86861743980187e+01°)
1.69349062472506e+02	(-3.92870811676589e+01dB,8.86770367427366e+01°)
1.70526978353592e+02	(-3.92268910872612e+01dB,8.86678355452633e+01°)
1.71713087287552e+02	(-3.91667012290698e+01dB,8.86585703639478e+01°)
1.72907446261574e+02	(-3.91065115961863e+01dB,8.86492407540743e+01°)
1.74110112659226e+02	(-3.90463221917555e+01dB,8.86398462678405e+01°)
1.75321144263208e+02	(-3.89861330189663e+01dB,8.86303864543363e+01°)
1.76540599258132e+02	(-3.89259440810519e+01dB,8.86208608595225e+01°)
1.77768536233315e+02	(-3.88657553812906e+01dB,8.86112690262093e+01°)
1.79005014185596e+02	(-3.88055669230066e+01dB,8.86016104940340e+01°)
1.80250092522167e+02	(-3.87453787095705e+01dB,8.85918847994399e+01°)
1.81503831063433e+02	(-3.86851907443998e+01dB,8.85820914756535e+01°)
1.82766290045881e+02	(-3.86250030309597e+01dB,8.85722300526626e+01°)
1.84037530124976e+02	(-3.85648155727639e+01dB,8.85623000571940e+01°)
1.85317612378075e+02	(-3.85046283733752e+01dB,8.85523010126909e+01°)
1.86606598307363e+02	(-3.84444414364058e+01dB,8.85422324392903e+01°)
1.87904549842804e+02	(-3.83842547655185e+01dB,8.85320938538000e+01°)
1.89211529345120e+02	(-3.83240683644273e+01dB,8.85218847696759e+01°)
1.90527599608789e+02	(-3.82638822368980e+01dB,8.85116046969987e+01°)
1.91852823865054e+02	(-3.82036963867489e+01dB,8.85012531424506e+01°)
1.93187265784970e+02	(-3.81435108178514e+01dB,8.84908296092919e+01°)
1.94530989482458e+02	(-3.80833255341314e+01dB,8.84803335973374e+01°)
1.95884059517387e+02	(-3.80231405395692e+01dB,8.84697646029328e+01°)
1.97246540898673e+02	(-3.79629558382007e+01dB,8.84591221189302e+01°)
1.98618499087409e+02	(-3.79027714341183e+01dB,8.84484056346648e+01°)
2.00000000000002e+02	(-3.78425873314713e+01dB,8.84376146359301e+01°)
2.01391110011345e+02	(-3.77824035344670e+01dB,8.84267486049538e+01°)
2.02791895958007e+02	(-3.77222200473716e+01dB,8.84158070203730e+01°)
2.04202425141440e+02	(-3.76620368745105e+01dB,8.84047893572094e+01°)
2.05622765331215e+02	(-3.76018540202696e+01dB,8.83936950868447e+01°)
2.07052984768277e+02	(-3.75416714890961e+01dB,8.83825236769952e+01°)
2.08493152168226e+02	(-3.74814892854993e+01dB,8.83712745916869e+01°)
2.09943336724615e+02	(-3.74213074140511e+01dB,8.83599472912297e+01°)
2.11403608112278e+02	(-3.73611258793875e+01dB,8.83485412321920e+01°)
2.12874036490674e+02	(-3.73009446862092e+01dB,8.83370558673750e+01°)
2.14354692507260e+02	(-3.72407638392824e+01dB,8.83254906457865e+01°)
2.15845647300887e+02	(-3.71805833434397e+01dB,8.83138450126150e+01°)
2.17346972505213e+02	(-3.71204032035814e+01dB,8.83021184092037e+01°)
2.18858740252150e+02	(-3.70602234246760e+01dB,8.82903102730232e+01°)
2.20381023175324e+02	(-3.70000440117614e+01dB,8.82784200376457e+01°)
2.21913894413571e+02	(-3.69398649699458e+01dB,8.82664471327177e+01°)
2.23457427614446e+02	(-3.68796863044087e+01dB,8.82543909839332e+01°)
2.25011696937764e+02	(-3.68195080204017e+01dB,8.82422510130065e+01°)
2.26576777059162e+02	(-3.67593301232500e+01dB,8.82300266376445e+01°)
2.28152743173687e+02	(-3.66991526183529e+01dB,8.82177172715198e+01°)
2.29739670999409e+02	(-3.66389755111851e+01dB,8.82053223242422e+01°)
2.31337636781060e+02	(-3.65787988072976e+01dB,8.81928412013316e+01°)
2.32946717293693e+02	(-3.65186225123190e+01dB,8.81802733041891e+01°)
2.34566989846378e+02	(-3.64584466319565e+01dB,8.81676180300692e+01°)
2.36198532285908e+02	(-3.63982711719966e+01dB,8.81548747720512e+01°)
2.37841423000546e+02	(-3.63380961383070e+01dB,8.81420429190105e+01°)
2.39495740923788e+02	(-3.62779215368369e+01dB,8.81291218555895e+01°)
2.41161565538154e+02	(-3.62177473736187e+01dB,8.81161109621690e+01°)
2.42838976879012e+02	(-3.61575736547689e+01dB,8.81030096148386e+01°)
2.44528055538416e+02	(-3.60974003864895e+01dB,8.80898171853674e+01°)
2.46228882668986e+02	(-3.60372275750688e+01dB,8.80765330411742e+01°)
2.47941539987800e+02	(-3.59770552268831e+01dB,8.80631565452979e+01°)
2.49666109780325e+02	(-3.59168833483974e+01dB,8.80496870563671e+01°)
2.51402674904368e+02	(-3.58567119461671e+01dB,8.80361239285703e+01°)
2.53151318794059e+02	(-3.57965410268391e+01dB,8.80224665116249e+01°)
2.54912125463855e+02	(-3.57363705971529e+01dB,8.80087141507472e+01°)
2.56685179512583e+02	(-3.56762006639421e+01dB,8.79948661866209e+01°)
2.58470566127501e+02	(-3.56160312341356e+01dB,8.79809219553665e+01°)
2.60268371088389e+02	(-3.55558623147592e+01dB,8.79668807885100e+01°)
2.62078680771675e+02	(-3.54956939129364e+01dB,8.79527420129509e+01°)
2.63901582154582e+02	(-3.54355260358902e+01dB,8.79385049509314e+01°)
2.65737162819305e+02	(-3.53753586909446e+01dB,8.79241689200037e+01°)
2.67585510957225e+02	(-3.53151918855255e+01dB,8.79097332329985e+01°)
2.69446715373141e+02	(-3.52550256271626e+01dB,8.78951971979920e+01°)
2.71320865489537e+02	(-3.51948599234906e+01dB,8.78805601182743e+01°)
2.73208051350882e+02	(-3.51346947822506e+01dB,8.78658212923158e+01°)
2.75108363627952e+02	(-3.50745302112919e+01dB,8.78509800137347e+01°)
2.77021893622188e+02	(-3.50143662185731e+01dB,8.78360355712637e+01°)
2.78948733270084e+02	(-3.49542028121641e+01dB,8.78209872487165e+01°)
2.80888975147603e+02	(-3.48940400002472e+01dB,8.78058343249546e+01°)
2.82842712474622e+02	(-3.48338777911188e+01dB,8.77905760738528e+01°)
2.84810039119418e+02	(-3.47737161931913e+01dB,8.77752117642657e+01°)
2.86791049603169e+02	(-3.47135552149943e+01dB,8.77597406599933e+01°)
2.88785839104503e+02	(-3.46533948651763e+01dB,8.77441620197461e+01°)
2.90794503464065e+02	(-3.45932351525066e+01dB,8.77284750971110e+01°)
2.92817139189129e+02	(-3.45330760858769e+01dB,8.77126791405159e+01°)
2.94853843458224e+02	(-3.44729176743028e+01dB,8.76967733931946e+01°)
2.96904714125813e+02	(-3.44127599269257e+01dB,8.76807570931514e+01°)
2.98969849726991e+02	(-3.43526028530146e+01dB,8.76646294731256e+01°)
3.01049349482217e+02	(-3.42924464619678e+01dB,8.76483897605552e+01°)
3.03143313302083e+02	(-3.42322907633146e+01dB,8.76320371775412e+01°)
3.05251841792115e+02	(-3.41721357667173e+01dB,8.76155709408113e+01°)
3.07375036257606e+02	(-3.41119814819730e+01dB,8.75989902616828e+01°)
3.09512998708482e+02	(-3.40518279190155e+01dB,8.75822943460261e+01°)
3.11665831864204e+02	(-3.39916750879172e+01dB,8.75654823942278e+01°)
3.13833639158704e+02	(-3.39315229988909e+01dB,8.75485536011531e+01°)
3.16016524745355e+02	(-3.38713716622918e+01dB,8.75315071561084e+01°)
3.18214593501971e+02	(-3.38112210886198e+01dB,8.75143422428033e+01°)
3.20427951035853e+02	(-3.37510712885211e+01dB,8.74970580393130e+01°)
3.22656703688855e+02	(-3.36909222727903e+01dB,8.74796537180395e+01°)
3.24900958542498e+02	(-3.36307740523729e+01dB,8.74621284456735e+01°)
3.27160823423117e+02	(-3.35706266383667e+01dB,8.74444813831553e+01°)
3.29436406907034e+02	(-3.35104800420246e+01dB,8.74267116856359e+01°)
3.31727818325781e+02	(-3.34503342747562e+01dB,8.74088185024378e+01°)
3.34035167771352e+02	(-3.33901893481304e+01dB,8.73908009770153e+01°)
3.36358566101490e+02	(-3.33300452738775e+01dB,8.73726582469151e+01°)
3.38698124945015e+02	(-3.32699020638914e+01dB,8.73543894437355e+01°)
3.41053956707187e+02	(-3.32097597302316e+01dB,8.73359936930869e+01°)
3.43426174575106e+02	(-3.31496182851263e+01dB,8.73174701145510e+01°)
3.45814892523151e+02	(-3.30894777409738e+01dB,8.72988178216396e+01°)
3.48220225318454e+02	(-3.30293381103456e+01dB,8.72800359217541e+01°)
3.50642288526419e+02	(-3.29691994059883e+01dB,8.72611235161437e+01°)
3.53081198516267e+02	(-3.29090616408267e+01dB,8.72420796998642e+01°)
3.55537072466633e+02	(-3.28489248279652e+01dB,8.72229035617358e+01°)
3.58010028371194e+02	(-3.27887889806916e+01dB,8.72035941843013e+01°)
3.60500185044337e+02	(-3.27286541124786e+01dB,8.71841506437833e+01°)
3.63007662126869e+02	(-3.26685202369870e+01dB,8.71645720100419e+01°)
3.65532580091765e+02	(-3.26083873680680e+01dB,8.71448573465317e+01°)
3.68075060249955e+02	(-3.25482555197659e+01dB,8.71250057102584e+01°)
3.70635224756154e+02	(-3.24881247063210e+01dB,8.71050161517356e+01°)
3.73213196614728e+02	(-3.24279949421722e+01dB,8.70848877149408e+01°)
3.75809099685610e+02	(-3.23678662419596e+01dB,8.70646194372716e+01°)
3.78423058690244e+02	(-3.23077386205275e+01dB,8.70442103495013e+01°)
3.81055199217580e+02	(-3.22476120929272e+01dB,8.70236594757343e+01°)
3.83705647730111e+02	(-3.21874866744199e+01dB,8.70029658333613e+01°)
3.86374531569944e+02	(-3.21273623804796e+01dB,8.69821284330143e+01°)
3.89061978964920e+02	(-3.20672392267961e+01dB,8.69611462785208e+01°)
3.91768119034777e+02	(-3.20071172292778e+01dB,8.69400183668585e+01°)
3.94493081797350e+02	(-3.19469964040551e+01dB,8.69187436881092e+01°)
3.97236998174820e+02	(-3.18868767674831e+01dB,8.68973212254126e+01°)
4.00000000000006e+02	(-3.18267583361452e+01dB,8.68757499549195e+01°)
4.02782220022694e+02	(-3.17666411268559e+01dB,8.68540288457452e+01°)
4.05583791916018e+02	(-3.17065251566639e+01dB,8.68321568599225e+01°)
4.08404850282884e+02	(-3.16464104428559e+01dB,8.68101329523540e+01°)
4.11245530662433e+02	(-3.15862970029594e+01dB,8.67879560707646e+01°)
4.14105969536557e+02	(-3.15261848547465e+01dB,8.67656251556532e+01°)
4.16986304336455e+02	(-3.14660740162367e+01dB,8.67431391402450e+01°)
4.19886673449233e+02	(-3.14059645057010e+01dB,8.67204969504423e+01°)
4.22807216224559e+02	(-3.13458563416649e+01dB,8.66976975047762e+01°)
4.25748072981351e+02	(-3.12857495429124e+01dB,8.66747397143569e+01°)
4.28709385014524e+02	(-3.12256441284889e+01dB,8.66516224828245e+01°)
4.31691294601778e+02	(-3.11655401177058e+01dB,8.66283447062993e+01°)
4.34693945010430e+02	(-3.11054375301433e+01dB,8.66049052733317e+01°)
4.37717480504303e+02	(-3.10453363856546e+01dB,8.65813030648516e+01°)
4.40762046350651e+02	(-3.09852367043699e+01dB,8.65575369541181e+01°)
4.43827788827145e+02	(-3.09251385066995e+01dB,8.65336058066684e+01°)
4.46914855228895e+02	(-3.08650418133384e+01dB,8.65095084802662e+01°)
4.50023393875531e+02	(-3.08049466452703e+01dB,8.64852438248508e+01°)
4.53153554118327e+02	(-3.07448530237708e+01dB,8.64608106824845e+01°)
4.56305486347377e+02	(-3.06847609704124e+01dB,8.64362078873009e+01°)
4.59479341998822e+02	(-3.06246705070682e+01dB,8.64114342654522e+01°)
4.62675273562123e+02	(-3.05645816559159e+01dB,8.63864886350566e+01°)
4.65893434587390e+02	(-3.05044944394425e+01dB,8.63613698061447e+01°)
4.69133979692759e+02	(-3.04444088804482e+01dB,8.63360765806068e+01°)
4.72397064571820e+02	(-3.03843250020510e+01dB,8.63106077521385e+01°)
4.75682846001096e+02	(-3.03242428276909e+01dB,8.62849621061870e+01°)
4.78991481847580e+02	(-3.02641623811346e+01dB,8.62591384198966e+01°)
4.82323131076312e+02	(-3.02040836864801e+01dB,8.62331354620542e+01°)
4.85677953758027e+02	(-3.01440067681608e+01dB,8.62069519930342e+01°)
4.89056111076836e+02	(-3.00839316509507e+01dB,8.61805867647429e+01°)
4.92457765337975e+02	(-3.00238583599691e+01dB,8.61540385205637e+01°)
4.95883079975603e+02	(-2.99637869206850e+01dB,8.61273059953001e+01°)
4.99332219560653e+02	(-2.99037173589223e+01dB,8.61003879151202e+01°)
5.02805349808740e+02	(-2.98436497008646e+01dB,8.60732829975000e+01°)
5.06302637588121e+02	(-2.97835839730605e+01dB,8.60459899511663e+01°)
5.09824250927714e+02	(-2.97235202024279e+01dB,8.60185074760394e+01°)
5.13370359025171e+02	(-2.96634584162601e+01dB,8.59908342631761e+01°)
5.16941132255006e+02	(-2.96033986422304e+01dB,8.59629689947113e+01°)
5.20536742176783e+02	(-2.95433409083975e+01dB,8.59349103438000e+01°)
5.24157361543355e+02	(-2.94832852432109e+01dB,8.59066569745588e+01°)
5.27803164309167e+02	(-2.94232316755163e+01dB,8.58782075420074e+01°)
5.31474325638614e+02	(-2.93631802345611e+01dB,8.58495606920087e+01°)
5.35171021914455e+02	(-2.93031309500001e+01dB,8.58207150612100e+01°)
5.38893430746286e+02	(-2.92430838519010e+01dB,8.57916692769832e+01°)
5.42641730979079e+02	(-2.91830389707501e+01dB,8.57624219573642e+01°)
5.46416102701768e+02	(-2.91229963374582e+01dB,8.57329717109927e+01°)
5.50216727255908e+02	(-2.90629559833667e+01dB,8.57033171370518e+01°)
5.54043787244380e+02	(-2.90029179402531e+01dB,8.56734568252064e+01°)
5.57897466540173e+02	(-2.89428822403375e+01dB,8.56433893555419e+01°)
5.61777950295209e+02	(-2.88828489162884e+01dB,8.56131132985026e+01°)
5.65685424949249e+02	(-2.88228180012291e+01dB,8.55826272148296e+01°)
5.69620078238839e+02	(-2.87627895287441e+01dB,8.55519296554985e+01°)
5.73582099206342e+02	(-2.87027635328854e+01dB,8.55210191616563e+01°)
5.77571678209009e+02	(-2.86427400481787e+01dB,8.54898942645589e+01°)
5.81589006928135e+02	(-2.85827191096306e+01dB,8.54585534855074e+01°)
5.85634278378261e+02	(-2.85227007527346e+01dB,8.54269953357844e+01°)
5.89707686916452e+02	(-2.84626850134784e+01dB,8.53952183165901e+01°)
5.93809428251631e+02	(-2.84026719283503e+01dB,8.53632209189781e+01°)
5.97939699453987e+02	(-2.83426615343464e+01dB,8.53310016237903e+01°)
6.02098698964439e+02	(-2.82826538689777e+01dB,8.52985589015924e+01°)
6.06286626604171e+02	(-2.82226489702771e+01dB,8.52658912126084e+01°)
6.10503683584236e+02	(-2.81626468768065e+01dB,8.52329970066549e+01°)
6.14750072515217e+02	(-2.81026476276644e+01dB,8.51998747230751e+01°)
6.19025997416968e+02	(-2.80426512624931e+01dB,8.51665227906729e+01°)
6.23331663728412e+02	(-2.79826578214866e+01dB,8.51329396276457e+01°)
6.27667278317413e+02	(-2.79226673453977e+01dB,8.50991236415183e+01°)
6.32033049490714e+02	(-2.78626798755462e+01dB,8.50650732290747e+01°)
6.36429187003948e+02	(-2.78026954538264e+01dB,8.50307867762914e+01°)
6.40855902071711e+02	(-2.77427141227155e+01dB,8.49962626582691e+01°)
6.45313407377714e+02	(-2.76827359252811e+01dB,8.49614992391647e+01°)
6.49801917085002e+02	(-2.76227609051898e+01dB,8.49264948721224e+01°)
6.54321646846238e+02	(-2.75627891067154e+01dB,8.48912478992057e+01°)
6.58872813814072e+02	(-2.75028205747472e+01dB,8.48557566513273e+01°)
6.63455636651567e+02	(-2.74428553547984e+01dB,8.48200194481805e+01°)
6.68070335542709e+02	(-2.73828934930152e+01dB,8.47840345981689e+01°)
6.72717132202986e+02	(-2.73229350361849e+01dB,8.47478003983367e+01°)
6.77396249890036e+02	(-2.72629800317455e+01dB,8.47113151342982e+01°)
6.82107913414380e+02	(-2.72030285277939e+01dB,8.46745770801671e+01°)
6.86852349150217e+02	(-2.71430805730956e+01dB,8.46375844984856e+01°)
6.91629785046307e+02	(-2.70831362170938e+01dB,8.46003356401530e+01°)
6.96440450636914e+02	(-2.70231955099186e+01dB,8.45628287443547e+01°)
7.01284577052843e+02	(-2.69632585023965e+01dB,8.45250620384893e+01°)
7.06162397032539e+02	(-2.69033252460603e+01dB,8.44870337380976e+01°)
7.11074144933271e+02	(-2.68433957931585e+01dB,8.44487420467892e+01°)
7.16020056742393e+02	(-2.67834701966655e+01dB,8.44101851561706e+01°)
7.21000370088680e+02	(-2.67235485102912e+01dB,8.43713612457713e+01°)
7.26015324253744e+02	(-2.66636307884916e+01dB,8.43322684829713e+01°)
7.31065160183536e+02	(-2.66037170864789e+01dB,8.42929050229270e+01°)
7.36150120499916e+02	(-2.65438074602316e+01dB,8.42532690084978e+01°)
